
SetupTitle, REED
PrimitiveTest, I/V Sweep
TestParameter, Context.MainFrame, B1500A
TestParameter, Channel.UnitType, SMU, SMU, SMU, SMU, SMU
TestParameter, Channel.Unit, SMU4:HR, SMU2:HR, SMU1:HP, SMU3:HR, SMU5:MP
TestParameter, Channel.IName, IDD, IIN, IB1, IOUT, IB2
TestParameter, Channel.VName, VDD, VIN, VB1, VOUT, VB2
TestParameter, Channel.Mode, V, V, V, I, V
TestParameter, Channel.Func, CONST, VAR1, CONST, CONST, CONST
TestParameter, Channel.Index, 
TestParameter, Channel.Time, 
TestParameter, Measurement.Port.Unit, SMU4:HR, SMU2:HR, SMU1:HP, SMU3:HR, SMU5:MP
TestParameter, Measurement.Port.SeriesResistor, NONE, NONE, NONE, NONE, NONE
TestParameter, Measurement.Port.Filter, ON, ON, ON, ON, ON
TestParameter, Measurement.Port.OutputVoltageComparison, 0, 0, 0, 0, 0
TestParameter, Measurement.Primary.Locus, Single
TestParameter, Measurement.Primary.Scale, LINEAR
TestParameter, Measurement.Primary.Start, -8
TestParameter, Measurement.Primary.Stop, -4
TestParameter, Measurement.Primary.Step, 0.02
TestParameter, Measurement.Primary.Compliance, 0.1
TestParameter, Measurement.Primary.PowerCompliance, 0
TestParameter, Measurement.Aborting.Condition, CONTINUE AT ANY
TestParameter, Measurement.PostOutput.Value, START
TestParameter, Measurement.PostOutput.Retention, OFF
TestParameter, Measurement.Bias.Source, 8, -8, -12, 0, 8
TestParameter, Measurement.Bias.Compliance, 0.01, 0.1, 0.1, 0.1, 0.1
TestParameter, Measurement.Monitor.Unit, SMU4:HR, SMU2:HR, SMU1:HP, SMU3:HR, SMU5:MP
TestParameter, Measurement.Monitor.Adc, HR ADC, HR ADC, HR ADC, HR ADC, HR ADC
TestParameter, Measurement.Monitor.Measurement, Compliance Side, Compliance Side, Compliance Side, Compliance Side, Compliance Side
TestParameter, Measurement.Monitor.RangingMode, LIMITED, LIMITED, LIMITED, LIMITED, LIMITED
TestParameter, Measurement.Monitor.RangeBoundary, 1nA, 1nA, 1nA, 2V, 1nA
TestParameter, Measurement.Monitor.RangeRating, BY FULL RANGE, BY FULL RANGE, BY FULL RANGE, BY FULL RANGE
TestParameter, Measurement.Monitor.RangeRatingCoeff, 50, 50, 50, 50
TestParameter, Measurement.Timing.Hold, 0
TestParameter, Measurement.Timing.Delay, 0
TestParameter, Measurement.Adc.HighSpeed.Mode, AUTO
TestParameter, Measurement.Adc.HighSpeed.Coeff, 1
TestParameter, Measurement.Adc.HighResolution.AutoZero, OFF
TestParameter, Measurement.Adc.HighResolution.Mode, AUTO
TestParameter, Measurement.Adc.HighResolution.Coeff, 6
TestParameter, Measurement.WaitTime.Source.Coeff, 1
TestParameter, Measurement.WaitTime.Source.Offset, 0
TestParameter, Measurement.WaitTime.Monitor.Coeff, 1
TestParameter, Measurement.WaitTime.Monitor.Offset, 0
TestParameter, Function.User.Name, AV
TestParameter, Function.User.Unit, 
TestParameter, Function.User.Definition, diff(VOUT,VIN)
TestParameter, Output.Graph.Enabled, true
TestParameter, Output.Graph.AutoScaling, false
TestParameter, Output.Graph.XAxis.Data, VIN
TestParameter, Output.Graph.XAxis.Scale, Linear
TestParameter, Output.Graph.XAxis.Left, -15
TestParameter, Output.Graph.XAxis.Right, 0
TestParameter, Output.Graph.XAxis.RunTimeAutoScale, true
TestParameter, Output.Graph.YAxis.Data, VOUT, AV, IIN, IOUT
TestParameter, Output.Graph.YAxis.Scale, Linear, Linear, Linear, Linear
TestParameter, Output.Graph.YAxis.Bottom, 0, 0, -0.1, -1.1499999999999999E-11
TestParameter, Output.Graph.YAxis.Top, 12, 1, 0.1, 1.1499999999999999E-11
TestParameter, Output.Graph.YAxis.Group, Group 1, , , 
TestParameter, Output.Graph.YAxis.RunTimeAutoScale, true, true, true, true
TestParameter, AutoAnalysis.Interpolation, false
TestParameter, AutoAnalysis.Line1.Enabled, false
TestParameter, AutoAnalysis.Line1.Type, 1
TestParameter, AutoAnalysis.Line1.Fix, True
TestParameter, AutoAnalysis.Line1.YAxis, 0
TestParameter, AutoAnalysis.Line1.Point1.Type, 0
TestParameter, AutoAnalysis.Line1.Point1.XY.X, 
TestParameter, AutoAnalysis.Line1.Point1.XY.Y, 
TestParameter, AutoAnalysis.Line1.Point1.Data.Var, 
TestParameter, AutoAnalysis.Line1.Point1.Data.Condition, 
TestParameter, AutoAnalysis.Line1.Point1.Data.Start, false
TestParameter, AutoAnalysis.Line1.Point1.Data.StartVar, 
TestParameter, AutoAnalysis.Line1.Point1.Data.StartCondition, 
TestParameter, AutoAnalysis.Line1.Point2.Type, 0
TestParameter, AutoAnalysis.Line1.Point2.XY.X, 
TestParameter, AutoAnalysis.Line1.Point2.XY.Y, 
TestParameter, AutoAnalysis.Line1.Point2.Data.Var, 
TestParameter, AutoAnalysis.Line1.Point2.Data.Condition, 
TestParameter, AutoAnalysis.Line1.Point2.Data.Start, false
TestParameter, AutoAnalysis.Line1.Point2.Data.StartVar, 
TestParameter, AutoAnalysis.Line1.Point2.Data.StartCondition, 
TestParameter, AutoAnalysis.Line1.GradientExpr, 0
TestParameter, AutoAnalysis.Line2.Enabled, false
TestParameter, AutoAnalysis.Line2.Type, 1
TestParameter, AutoAnalysis.Line2.Fix, True
TestParameter, AutoAnalysis.Line2.YAxis, 0
TestParameter, AutoAnalysis.Line2.Point1.Type, 0
TestParameter, AutoAnalysis.Line2.Point1.XY.X, 
TestParameter, AutoAnalysis.Line2.Point1.XY.Y, 
TestParameter, AutoAnalysis.Line2.Point1.Data.Var, 
TestParameter, AutoAnalysis.Line2.Point1.Data.Condition, 
TestParameter, AutoAnalysis.Line2.Point1.Data.Start, false
TestParameter, AutoAnalysis.Line2.Point1.Data.StartVar, 
TestParameter, AutoAnalysis.Line2.Point1.Data.StartCondition, 
TestParameter, AutoAnalysis.Line2.Point2.Type, 0
TestParameter, AutoAnalysis.Line2.Point2.XY.X, 
TestParameter, AutoAnalysis.Line2.Point2.XY.Y, 
TestParameter, AutoAnalysis.Line2.Point2.Data.Var, 
TestParameter, AutoAnalysis.Line2.Point2.Data.Condition, 
TestParameter, AutoAnalysis.Line2.Point2.Data.Start, false
TestParameter, AutoAnalysis.Line2.Point2.Data.StartVar, 
TestParameter, AutoAnalysis.Line2.Point2.Data.StartCondition, 
TestParameter, AutoAnalysis.Line2.GradientExpr, 0
TestParameter, AutoAnalysis.Marker.Enabled, false
TestParameter, AutoAnalysis.Marker.Data.Var, 
TestParameter, AutoAnalysis.Marker.Data.Condition, 
TestParameter, AutoAnalysis.Marker.Data.Start, false
TestParameter, AutoAnalysis.Marker.Data.StartVar, 
TestParameter, AutoAnalysis.Marker.Data.StartCondition, 
MetaData, TestRecord.EntryPoint, true
MetaData, TestRecord.RecordTime, 04/25/2022 13:56:05
MetaData, TestRecord.TestTarget, 
MetaData, TestRecord.IterationIndex, 29
MetaData, TestRecord.Preservation, true
MetaData, TestRecord.Flag, 
MetaData, TestRecord.Remarks, 
MetaData, TestRecord.LinkKey, 2cf079ed-3fb1-4e82-a2d5-a2317c6bd427
Dimension1, 201, 201, 201, 201, 201
Dimension2, 1, 1, 1, 1, 1
DataName, VIN, IOUT, IIN, VOUT, AV
DataValue, -8, 0, -0.00018234000000000002, -2.6554, 1.8150000000000275
DataValue, -7.98, 0, -0.00018140000000000002, -2.6191000000000004, 1.7950000000000006
DataValue, -7.96, 0, -0.00018052, -2.5836, 1.8125000000000042
DataValue, -7.94, 0, -0.00017954, -2.5466, 1.8375000000000015
DataValue, -7.92, 0, -0.00017864, -2.5101, 1.7974999999999948
DataValue, -7.9, 0, -0.00017772, -2.4747000000000003, 1.8749999999999918
DataValue, -7.88, 0, -0.00017678, -2.4351000000000003, 1.9600000000000044
DataValue, -7.86, 0, -0.00017588, -2.3963, 1.7874999999999959
DataValue, -7.84, 0, -0.00017494, -2.3636000000000004, 1.7649999999999928
DataValue, -7.82, 0, -0.000174, -2.3257000000000003, 1.9275000000000024
DataValue, -7.8, 0, -0.00017306, -2.2865, 1.8750000000000027
DataValue, -7.78, 0, -0.00017214000000000002, -2.2507, 1.865000000000004
DataValue, -7.76, 0, -0.00017120000000000001, -2.2119, 1.9750000000000028
DataValue, -7.74, 0, -0.00017024000000000002, -2.1717, 1.8324999999999909
DataValue, -7.72, 0, -0.00016930000000000002, -2.1386000000000003, 1.78999999999999
DataValue, -7.7, 0, -0.00016836000000000002, -2.1001000000000003, 1.9624999999999986
DataValue, -7.68, 0, -0.00016738000000000001, -2.0601000000000003, 1.9624999999999986
DataValue, -7.66, 0, -0.00016644, -2.0216000000000003, 1.9925000000000506
DataValue, -7.6400000000000006, 0, -0.00016546, -1.9804, 1.9620000000000064
DataValue, -7.62, 0, -0.00016450000000000001, -1.94312, 1.9099999999999988
DataValue, -7.6000000000000005, 0, -0.00016352, -1.904, 1.9219999999999997
DataValue, -7.58, 0, -0.00016258, -1.86624, 1.9239999999999962
DataValue, -7.5600000000000005, 0, -0.0001616, -1.82704, 1.994999999999995
DataValue, -7.54, 0, -0.00016068, -1.78644, 1.9410000000000021
DataValue, -7.5200000000000005, 0, -0.00015966, -1.7493999999999998, 1.9219999999999997
DataValue, -7.5, 0, -0.00015866, -1.70956, 2.0349999999999961
DataValue, -7.48, 0, -0.00015772, -1.668, 1.9429999999999985
DataValue, -7.46, 0, -0.00015674000000000002, -1.63184, 1.889
DataValue, -7.44, 0, -0.00015574, -1.5924399999999999, 2.0230000000000006
DataValue, -7.42, 0, -0.00015474, -1.5509199999999999, 2.0519999999999965
DataValue, -7.4, 0, -0.00015372, -1.51036, 2.0659999999999936
DataValue, -7.38, 0, -0.00015274, -1.46828, 2.0349999999999961
DataValue, -7.36, 0, -0.0001518, -1.42896, 1.9819999999999987
DataValue, -7.34, 0, -0.0001508, -1.389, 2.0070000000000014
DataValue, -7.32, 0, -0.0001498, -1.3486799999999999, 2.0520000000000018
DataValue, -7.3, 0, -0.00014878000000000002, -1.3069199999999999, 2.0929999999999986
DataValue, -7.28, 0, -0.00014778, -1.2649599999999999, 1.9629999999999963
DataValue, -7.26, 0, -0.00014680000000000002, -1.2284, 1.9679999999999958
DataValue, -7.24, 0, -0.00014580000000000002, -1.18624, 2.109999999999999
DataValue, -7.22, 0, -0.0001448, -1.144, 1.9769999999999992
DataValue, -7.2, 0, -0.0001438, -1.10716, 1.9439999999999995
DataValue, -7.18, 0, -0.0001428, -1.0662399999999999, 2.0799999999999965
DataValue, -7.16, 0, -0.0001418, -1.02396, 2.0570000000000417
DataValue, -7.1400000000000006, 0, -0.00014082, -0.98396, 2.0589999999999979
DataValue, -7.12, 0, -0.00013978000000000002, -0.9416, 2.0619999999999981
DataValue, -7.1000000000000005, 0, -0.00013878, -0.90148, 2.0369999999999981
DataValue, -7.08, 0, -0.00013778, -0.86012, 2.1049999999999969
DataValue, -7.0600000000000005, 0, -0.00013676, -0.81728, 1.989
DataValue, -7.04, 0, -0.00013574, -0.78055999999999992, 2.086
DataValue, -7.0200000000000005, 0, -0.00013478, -0.73383999999999994, 2.2029999999999976
DataValue, -7, 0, -0.00013376000000000002, -0.69243999999999994, 2.0089999999999977
DataValue, -6.98, 0, -0.00013276, -0.65348, 1.984999999999999
DataValue, -6.96, 0, -0.00013176, -0.61303999999999992, 2.0599999999999987
DataValue, -6.94, 0, -0.00013076, -0.57107999999999992, 2.0289999999999955
DataValue, -6.92, 0, -0.00012976, -0.53188, 2.0889999999999973
DataValue, -6.9, 0, -0.00012874000000000002, -0.48751999999999995, 2.1069999999999989
DataValue, -6.88, 0, -0.00012774000000000002, -0.4476, 2.0159999999999978
DataValue, -6.86, 0, -0.00012670000000000002, -0.40687999999999996, 2.0269999999999992
DataValue, -6.84, 0, -0.00012574, -0.36651999999999996, 2.0859999999999972
DataValue, -6.82, 0, -0.00012474, -0.32344, 2.0179999999999971
DataValue, -6.8, 0, -0.00012374, -0.2858, 1.9789999999999985
DataValue, -6.78, 0, -0.00012274, -0.24428, 2.0939999999999981
DataValue, -6.76, 0, -0.00012176000000000001, -0.20204, 2.0719999999999983
DataValue, -6.74, 0, -0.00012076, -0.1614, 2.0779999999999981
DataValue, -6.72, 0, -0.00011978000000000001, -0.11892, 2.126999999999998
DataValue, -6.7, 0, -0.0001188, -0.07632, 2.0429999999999984
DataValue, -6.68, 0, -0.00011782000000000001, -0.0372, 1.9929999999999981
DataValue, -6.66, 0, -0.00011684000000000001, 0.0034, 2.0300000000000433
DataValue, -6.6400000000000006, 0, -0.00011588000000000001, 0.044, 2.0579999999999981
DataValue, -6.62, 0, -0.00011488000000000001, 0.085719999999999991, 2.041999999999998
DataValue, -6.6000000000000005, 0, -0.00011394000000000001, 0.12568, 2.1129999999999982
DataValue, -6.58, 0, -0.00011292000000000001, 0.17024, 2.1859999999999986
DataValue, -6.5600000000000005, 0, -0.00011194, 0.21312, 2.0729999999999982
DataValue, -6.54, 0, -0.00011096000000000001, 0.25316, 1.9759999999999975
DataValue, -6.5200000000000005, 0, -0.00011, 0.29216, 1.9539999999999984
DataValue, -6.5, 0, -0.00010906, 0.33132, 1.9829999999999983
DataValue, -6.48, 0, -0.00010808000000000001, 0.37148, 2.0569999999999973
DataValue, -6.46, 0, -0.00010712, 0.41359999999999997, 2.1259999999999981
DataValue, -6.44, 0, -0.00010618, 0.45652, 2.1459999999999986
DataValue, -6.42, 0, -0.00010522000000000001, 0.49944, 2.014999999999997
DataValue, -6.4, 0, -0.00010428000000000001, 0.53711999999999993, 1.8989999999999989
DataValue, -6.38, 0, -0.00010332000000000001, 0.5754, 1.9670000000000003
DataValue, -6.36, 0, -0.00010240000000000001, 0.6158, 2.0189999999999966
DataValue, -6.34, 0, -0.00010146000000000001, 0.65616, 2.0749999999999971
DataValue, -6.32, 0, -0.00010052, 0.6988, 2.1429999999999985
DataValue, -6.3, 0, -9.9596E-05, 0.74188, 2.0069999999999988
DataValue, -6.28, 0, -9.8674E-05, 0.77908, 1.9689999999999968
DataValue, -6.26, 0, -9.7756E-05, 0.82063999999999993, 2.1159999999999966
DataValue, -6.24, 0, -9.6834E-05, 0.86371999999999993, 2.0269999999999992
DataValue, -6.22, 0, -9.5922000000000008E-05, 0.90172, 1.9699999999999978
DataValue, -6.2, 0, -9.5012E-05, 0.94251999999999991, 2.0959999999999988
DataValue, -6.18, 0, -9.4102E-05, 0.98556, 2.0659999999999967
DataValue, -6.16, 0, -9.3198E-05, 1.0251599999999999, 1.9360000000000401
DataValue, -6.1400000000000006, 0, -9.2304E-05, 1.063, 1.9850000000000017
DataValue, -6.12, 0, -9.1404000000000008E-05, 1.10456, 1.996999999999997
DataValue, -6.1000000000000005, 0, -9.0514000000000008E-05, 1.14288, 1.9539999999999984
DataValue, -6.08, 0, -8.9598E-05, 1.18272, 1.9159999999999993
DataValue, -6.0600000000000005, 0, -8.8708E-05, 1.21952, 2.021999999999994
DataValue, -6.04, 0, -8.7834E-05, 1.2635999999999998, 2.0730000000000008
DataValue, -6.0200000000000005, 0, -8.6964E-05, 1.30244, 2.0070000000000014
DataValue, -6, 0, -8.6096E-05, 1.34388, 1.9919999999999976
DataValue, -5.98, 0, -8.5230000000000009E-05, 1.38212, 1.9559999999999949
DataValue, -5.96, 0, -8.4364000000000007E-05, 1.4221199999999998, 1.948999999999999
DataValue, -5.94, 0, -8.3516E-05, 1.46008, 1.9190000000000023
DataValue, -5.92, 0, -8.267E-05, 1.49888, 1.9399999999999955
DataValue, -5.9, 0, -8.1822E-05, 1.53768, 1.9899999999999956
DataValue, -5.88, 0, -8.0988E-05, 1.5784799999999999, 1.9519999999999964
DataValue, -5.86, 0, -8.0104E-05, 1.6157599999999999, 1.9130000000000018
DataValue, -5.84, 0, -7.9272000000000009E-05, 1.655, 1.9740000000000018
DataValue, -5.82, 0, -7.8446E-05, 1.69472, 1.9239999999999962
DataValue, -5.8, 0, -7.7614E-05, 1.73196, 1.883999999999995
DataValue, -5.78, 0, -7.6798E-05, 1.7700799999999999, 1.9109999999999998
DataValue, -5.76, 0, -7.5982E-05, 1.8084, 1.8719999999999999
DataValue, -5.74, 0, -7.5184E-05, 1.84496, 1.7849999999999962
DataValue, -5.72, 0, -7.4372E-05, 1.8798, 1.795999999999996
DataValue, -5.7, 0, -7.3574E-05, 1.9167999999999998, 1.9209999999999987
DataValue, -5.68, 0, -7.2782000000000009E-05, 1.95664, 2.0089999999999977
DataValue, -5.66, 0, -7.2E-05, 1.9971599999999998, 1.9879999999999936
DataValue, -5.64, 0, -7.1174E-05, 2.0361599999999997, 1.9089999999999978
DataValue, -5.62, 0, -7.0396000000000008E-05, 2.07352, 1.763000000000041
DataValue, -5.6000000000000005, 0, -6.9628E-05, 2.10668, 1.8909999999999965
DataValue, -5.58, 0, -6.884E-05, 2.1491599999999997, 1.9829999999999997
DataValue, -5.5600000000000005, 0, -6.808E-05, 2.186, 1.7810000000000088
DataValue, -5.54, 0, -6.7314E-05, 2.2204, 1.9250000000000083
DataValue, -5.5200000000000005, 0, -6.656E-05, 2.2630000000000003, 1.8874999999999957
DataValue, -5.5, 0, -6.5806E-05, 2.2959, 1.8149999999999984
DataValue, -5.48, 0, -6.5064E-05, 2.3356000000000003, 1.8800000000000021
DataValue, -5.46, 0, -6.4316E-05, 2.3711, 1.8574999999999993
DataValue, -5.44, 0, -6.3582E-05, 2.4099000000000004, 1.8774999999999968
DataValue, -5.42, 0, -6.285E-05, 2.4462, 1.7974999999999948
DataValue, -5.4, 0, -6.2096E-05, 2.4818000000000002, 1.7624999999999986
DataValue, -5.38, 0, -6.1368E-05, 2.5167, 1.8800000000000021
DataValue, -5.36, 0, -6.0650000000000004E-05, 2.5570000000000004, 1.8349999999999962
DataValue, -5.34, 0, -5.9944E-05, 2.5901, 1.7274999999999914
DataValue, -5.32, 0, -5.9234E-05, 2.6261, 1.787500000000007
DataValue, -5.3, 0, -5.8542E-05, 2.6616000000000004, 1.7450000000000061
DataValue, -5.28, 0, -5.7838000000000004E-05, 2.6959000000000004, 1.8249999999999973
DataValue, -5.26, 0, -5.7152000000000004E-05, 2.7346000000000004, 1.9299999999999966
DataValue, -5.24, 0, -5.6462E-05, 2.7731000000000003, 1.8124999999999931
DataValue, -5.22, 0, -5.5782E-05, 2.8071, 1.7425000000000008
DataValue, -5.2, 0, -5.5094000000000005E-05, 2.8428000000000004, 1.722500000000003
DataValue, -5.18, 0, -5.4406E-05, 2.8760000000000003, 1.6824999999999963
DataValue, -5.16, 0, -5.373E-05, 2.9101000000000004, 1.9399999999999955
DataValue, -5.14, 0, -5.3066E-05, 2.9536000000000002, 1.9299999999999966
DataValue, -5.12, 0, -5.2412E-05, 2.9873000000000003, 1.7825000000000359
DataValue, -5.1000000000000005, 0, -5.176E-05, 3.0249, 1.7499999999999945
DataValue, -5.08, 0, -5.1114E-05, 3.0573, 1.6275000000000024
DataValue, -5.0600000000000005, 0, -5.0480000000000005E-05, 3.0900000000000003, 1.645000000000006
DataValue, -5.04, 0, -4.983E-05, 3.1231000000000004, 1.6750000000000027
DataValue, -5.0200000000000005, 0, -4.9198E-05, 3.1570000000000005, 1.8049999999999995
DataValue, -5, 0, -4.8574E-05, 3.1953000000000005, 1.7749999999999917
DataValue, -4.98, 0, -4.7956E-05, 3.228, 1.7724999999999975
DataValue, -4.96, 0, -4.7318E-05, 3.2662000000000004, 1.7724999999999975
DataValue, -4.94, 0, -4.6704E-05, 3.2989, 1.6549999999999938
DataValue, -4.92, 0, -4.6098000000000005E-05, 3.3324000000000003, 1.7425000000000008
DataValue, -4.9, 0, -4.55E-05, 3.3686000000000003, 1.6924999999999952
DataValue, -4.88, 0, -4.4898E-05, 3.4001, 1.6974999999999947
DataValue, -4.86, 0, -4.4308E-05, 3.4365, 1.6825000000000074
DataValue, -4.84, 0, -4.3712000000000004E-05, 3.4674000000000005, 1.5950000000000006
DataValue, -4.82, 0, -4.3144E-05, 3.5003, 1.6699999999999922
DataValue, -4.8, 0, -4.2556000000000004E-05, 3.5342000000000002, 1.6874999999999958
DataValue, -4.78, 0, -4.1988E-05, 3.5678, 1.8049999999999995
DataValue, -4.76, 0, -4.1412E-05, 3.6064000000000003, 1.7400000000000067
DataValue, -4.74, 0, -4.0824E-05, 3.6374000000000004, 1.6149999999999984
DataValue, -4.72, 0, -4.027E-05, 3.6710000000000003, 1.6124999999999932
DataValue, -4.7, 0, -3.972E-05, 3.7019, 1.5425000000000009
DataValue, -4.68, 0, -3.9176E-05, 3.7327000000000004, 1.634999999999996
DataValue, -4.66, 0, -3.8642E-05, 3.7673, 1.7674999999999981
DataValue, -4.64, 0, -3.811E-05, 3.8034000000000003, 1.7475000000000003
DataValue, -4.62, 0, -3.7574E-05, 3.8372, 1.5475000000000347
DataValue, -4.6000000000000005, 0, -3.7048E-05, 3.8653000000000004, 1.5925000000000065
DataValue, -4.58, 0, -3.6512E-05, 3.9009000000000005, 1.7299999999999967
DataValue, -4.5600000000000005, 0, -3.5988E-05, 3.9345000000000003, 1.5874999999999959
DataValue, -4.54, 0, -3.5472E-05, 3.9644000000000004, 1.6225000000000032
DataValue, -4.5200000000000005, 0, -3.4944E-05, 3.9994000000000005, 1.5824999999999965
DataValue, -4.5, 0, -3.4446E-05, 4.0277, 1.6399999999999955
DataValue, -4.48, 0, -3.3946E-05, 4.065, 1.6750000000000027
DataValue, -4.46, 0, -3.345E-05, 4.0947000000000005, 1.5149999999999984
DataValue, -4.44, 0, -3.2968E-05, 4.1256, 1.6650000000000038
DataValue, -4.42, 0, -3.248E-05, 4.1613000000000007, 1.5924999999999954
DataValue, -4.4, 0, -3.2004E-05, 4.1893, 1.4799999999999911
DataValue, -4.38, 0, -3.1534E-05, 4.2205, 1.5524999999999998
DataValue, -4.36, 0, -3.1056E-05, 4.2514, 1.4574999999999991
DataValue, -4.34, 0, -3.0594E-05, 4.2788, 1.5300000000000078
DataValue, -4.32, 0, -3.0128E-05, 4.3126000000000007, 1.7249999999999972
DataValue, -4.3, 0, -2.9648E-05, 4.3478, 1.5900000000000012
