
SetupTitle, IdVg
PrimitiveTest, I/V Sweep
TestParameter, Context.MainFrame, B1500A
TestParameter, Channel.UnitType, SMU, SMU, SMU
TestParameter, Channel.Unit, SMU2:HR, SMU4:HR, SMU3:HR
TestParameter, Channel.IName, IG, ID, IS
TestParameter, Channel.VName, VG, VD, VS
TestParameter, Channel.Mode, V, V, V
TestParameter, Channel.Func, VAR1, VAR2, CONST
TestParameter, Channel.Index, 
TestParameter, Channel.Time, 
TestParameter, Measurement.Port.Unit, SMU2:HR, SMU4:HR, SMU3:HR
TestParameter, Measurement.Port.SeriesResistor, NONE, NONE, NONE
TestParameter, Measurement.Port.Filter, ON, ON, ON
TestParameter, Measurement.Port.OutputVoltageComparison, 0, 0, 0
TestParameter, Measurement.Primary.Locus, Single
TestParameter, Measurement.Primary.Scale, LINEAR
TestParameter, Measurement.Primary.Start, -14
TestParameter, Measurement.Primary.Stop, 0
TestParameter, Measurement.Primary.Step, 0.2
TestParameter, Measurement.Primary.Compliance, 0.1
TestParameter, Measurement.Primary.PowerCompliance, 0
TestParameter, Measurement.Aborting.Condition, CONTINUE AT ANY
TestParameter, Measurement.PostOutput.Value, START
TestParameter, Measurement.PostOutput.Retention, OFF
TestParameter, Measurement.Secondary.Start, 0
TestParameter, Measurement.Secondary.Count, 51
TestParameter, Measurement.Secondary.Step, 0.2
TestParameter, Measurement.Secondary.Compliance, 0.01
TestParameter, Measurement.Secondary.PowerCompliance, 0
TestParameter, Measurement.Bias.Source, -14, 0, 0
TestParameter, Measurement.Bias.Compliance, 0.1, 0.01, 0.01
TestParameter, Measurement.Monitor.Unit, SMU2:HR, SMU4:HR, SMU3:HR
TestParameter, Measurement.Monitor.Adc, HR ADC, HR ADC, HR ADC
TestParameter, Measurement.Monitor.Measurement, Compliance Side, Compliance Side, Compliance Side
TestParameter, Measurement.Monitor.RangingMode, LIMITED, LIMITED, LIMITED
TestParameter, Measurement.Monitor.RangeBoundary, 1nA, 1nA, 1nA
TestParameter, Measurement.Monitor.RangeRating, BY FULL RANGE, BY FULL RANGE, BY FULL RANGE
TestParameter, Measurement.Monitor.RangeRatingCoeff, 50, 50, 50
TestParameter, Measurement.Timing.Hold, 0
TestParameter, Measurement.Timing.Delay, 0
TestParameter, Measurement.Adc.HighSpeed.Mode, AUTO
TestParameter, Measurement.Adc.HighSpeed.Coeff, 1
TestParameter, Measurement.Adc.HighResolution.AutoZero, OFF
TestParameter, Measurement.Adc.HighResolution.Mode, AUTO
TestParameter, Measurement.Adc.HighResolution.Coeff, 6
TestParameter, Measurement.WaitTime.Source.Coeff, 1
TestParameter, Measurement.WaitTime.Source.Offset, 0
TestParameter, Measurement.WaitTime.Monitor.Coeff, 1
TestParameter, Measurement.WaitTime.Monitor.Offset, 0
TestParameter, Output.Graph.Enabled, true
TestParameter, Output.Graph.AutoScaling, false
TestParameter, Output.Graph.XAxis.Data, VG
TestParameter, Output.Graph.XAxis.Scale, Linear
TestParameter, Output.Graph.XAxis.Left, -14
TestParameter, Output.Graph.XAxis.Right, 0
TestParameter, Output.Graph.XAxis.RunTimeAutoScale, true
TestParameter, Output.Graph.YAxis.Data, ID, IG
TestParameter, Output.Graph.YAxis.Scale, Linear, Linear
TestParameter, Output.Graph.YAxis.Bottom, -0.01, -0.1
TestParameter, Output.Graph.YAxis.Top, 0.01, 0.1
TestParameter, Output.Graph.YAxis.Group, , 
TestParameter, Output.Graph.YAxis.RunTimeAutoScale, true, true
TestParameter, AutoAnalysis.Interpolation, false
TestParameter, AutoAnalysis.Line1.Enabled, false
TestParameter, AutoAnalysis.Line1.Type, 1
TestParameter, AutoAnalysis.Line1.Fix, True
TestParameter, AutoAnalysis.Line1.YAxis, 0
TestParameter, AutoAnalysis.Line1.Point1.Type, 0
TestParameter, AutoAnalysis.Line1.Point1.XY.X, 
TestParameter, AutoAnalysis.Line1.Point1.XY.Y, 
TestParameter, AutoAnalysis.Line1.Point1.Data.Var, 
TestParameter, AutoAnalysis.Line1.Point1.Data.Condition, 
TestParameter, AutoAnalysis.Line1.Point1.Data.Start, false
TestParameter, AutoAnalysis.Line1.Point1.Data.StartVar, 
TestParameter, AutoAnalysis.Line1.Point1.Data.StartCondition, 
TestParameter, AutoAnalysis.Line1.Point2.Type, 0
TestParameter, AutoAnalysis.Line1.Point2.XY.X, 
TestParameter, AutoAnalysis.Line1.Point2.XY.Y, 
TestParameter, AutoAnalysis.Line1.Point2.Data.Var, 
TestParameter, AutoAnalysis.Line1.Point2.Data.Condition, 
TestParameter, AutoAnalysis.Line1.Point2.Data.Start, false
TestParameter, AutoAnalysis.Line1.Point2.Data.StartVar, 
TestParameter, AutoAnalysis.Line1.Point2.Data.StartCondition, 
TestParameter, AutoAnalysis.Line1.GradientExpr, 0
TestParameter, AutoAnalysis.Line2.Enabled, false
TestParameter, AutoAnalysis.Line2.Type, 1
TestParameter, AutoAnalysis.Line2.Fix, True
TestParameter, AutoAnalysis.Line2.YAxis, 0
TestParameter, AutoAnalysis.Line2.Point1.Type, 0
TestParameter, AutoAnalysis.Line2.Point1.XY.X, 
TestParameter, AutoAnalysis.Line2.Point1.XY.Y, 
TestParameter, AutoAnalysis.Line2.Point1.Data.Var, 
TestParameter, AutoAnalysis.Line2.Point1.Data.Condition, 
TestParameter, AutoAnalysis.Line2.Point1.Data.Start, false
TestParameter, AutoAnalysis.Line2.Point1.Data.StartVar, 
TestParameter, AutoAnalysis.Line2.Point1.Data.StartCondition, 
TestParameter, AutoAnalysis.Line2.Point2.Type, 0
TestParameter, AutoAnalysis.Line2.Point2.XY.X, 
TestParameter, AutoAnalysis.Line2.Point2.XY.Y, 
TestParameter, AutoAnalysis.Line2.Point2.Data.Var, 
TestParameter, AutoAnalysis.Line2.Point2.Data.Condition, 
TestParameter, AutoAnalysis.Line2.Point2.Data.Start, false
TestParameter, AutoAnalysis.Line2.Point2.Data.StartVar, 
TestParameter, AutoAnalysis.Line2.Point2.Data.StartCondition, 
TestParameter, AutoAnalysis.Line2.GradientExpr, 0
TestParameter, AutoAnalysis.Marker.Enabled, false
TestParameter, AutoAnalysis.Marker.Data.Var, 
TestParameter, AutoAnalysis.Marker.Data.Condition, 
TestParameter, AutoAnalysis.Marker.Data.Start, false
TestParameter, AutoAnalysis.Marker.Data.StartVar, 
TestParameter, AutoAnalysis.Marker.Data.StartCondition, 
MetaData, TestRecord.EntryPoint, true
MetaData, TestRecord.RecordTime, 05/02/2022 17:33:07
MetaData, TestRecord.TestTarget, 
MetaData, TestRecord.IterationIndex, 2
MetaData, TestRecord.Preservation, true
MetaData, TestRecord.Flag, 
MetaData, TestRecord.Remarks, 80/5 IVgsVds
MetaData, TestRecord.LinkKey, 1221dc1e-98ca-41a6-9a36-e8f1bede0ffa
Dimension1, 71, 71, 71
Dimension2, 51, 51, 51
DataName, VG, IG, ID
DataValue, -14, -3.0287E-10, 1.5824000000000001E-10
DataValue, -13.8, -3.0242000000000003E-10, 1.5498000000000002E-10
DataValue, -13.6, -2.9646000000000003E-10, 1.5133E-10
DataValue, -13.4, -2.904E-10, 1.4863E-10
DataValue, -13.200000000000001, -2.8380000000000004E-10, 1.4551000000000002E-10
DataValue, -13, -2.7826000000000003E-10, 1.4226E-10
DataValue, -12.8, -2.7232E-10, 1.3912E-10
DataValue, -12.6, -2.6646000000000003E-10, 1.3623E-10
DataValue, -12.4, -2.6013E-10, 1.3339000000000002E-10
DataValue, -12.200000000000001, -2.549E-10, 1.2979E-10
DataValue, -12, -2.4916E-10, 1.2611000000000002E-10
DataValue, -11.8, -2.426E-10, 1.223E-10
DataValue, -11.6, -2.37E-10, 1.1674E-10
DataValue, -11.4, -2.3119E-10, 1.1302000000000001E-10
DataValue, -11.200000000000001, -2.2525000000000002E-10, 1.1063000000000001E-10
DataValue, -11, -2.1966000000000002E-10, 1.0082000000000001E-10
DataValue, -10.8, -2.1396000000000003E-10, 9.212E-11
DataValue, -10.6, -2.0837000000000003E-10, 8.531E-11
DataValue, -10.4, -2.0258E-10, 6.5820000000000012E-11
DataValue, -10.200000000000001, -1.973E-10, 6.4360000000000011E-11
DataValue, -10, -1.919E-10, 4.275E-11
DataValue, -9.8, -1.8615000000000002E-10, 4.0880000000000005E-11
DataValue, -9.6, -1.8096000000000001E-10, 1.8780000000000002E-11
DataValue, -9.4, -1.7541000000000002E-10, -1.0840000000000002E-11
DataValue, -9.2000000000000011, -1.7022E-10, -3.369E-11
DataValue, -9, -1.6482E-10, -6.245E-11
DataValue, -8.8, -1.5972000000000002E-10, -4.548E-11
DataValue, -8.6, -1.5475E-10, -1.2192E-10
DataValue, -8.4, -1.4966E-10, -1.6375E-10
DataValue, -8.2, -1.4429E-10, -9.906E-11
DataValue, -8, -1.3961000000000002E-10, -1.9526E-10
DataValue, -7.8, -1.3464E-10, -2.0702000000000003E-10
DataValue, -7.6000000000000005, -1.2979E-10, -2.6666000000000004E-10
DataValue, -7.4, -1.2488E-10, -3.2220000000000004E-10
DataValue, -7.2, -1.1993000000000002E-10, -3.7534E-10
DataValue, -7, -1.1512000000000001E-10, -4.2903E-10
DataValue, -6.8, -1.1095000000000002E-10, -4.6477000000000004E-10
DataValue, -6.6000000000000005, -1.0603000000000001E-10, -4.8E-10
DataValue, -6.4, -1.0168E-10, -5.4829000000000008E-10
DataValue, -6.2, -9.721E-11, -6.0443000000000005E-10
DataValue, -6, -9.2430000000000011E-11, -6.1541E-10
DataValue, -5.8, -8.869E-11, -7.1878000000000008E-10
DataValue, -5.6000000000000005, -8.449000000000001E-11, -7.5283000000000008E-10
DataValue, -5.4, -8.037E-11, -8.2363000000000008E-10
DataValue, -5.2, -7.624E-11, -8.1275000000000011E-10
DataValue, -5, -7.2310000000000007E-11, -8.9792E-10
DataValue, -4.8, -6.819E-11, -9.4978E-10
DataValue, -4.6000000000000005, -6.418E-11, -1.0636700000000001E-09
DataValue, -4.4, -6.0700000000000008E-11, -1.15104E-09
DataValue, -4.2, -5.6650000000000006E-11, -1.15104E-09
DataValue, -4, -5.3180000000000004E-11, -1.15104E-09
DataValue, -3.8000000000000003, -4.978E-11, -1.1510300000000001E-09
DataValue, -3.6, -4.611E-11, -1.15104E-09
DataValue, -3.4, -4.236E-11, -6.4349E-10
DataValue, -3.2, -3.973E-11, -1.1510300000000001E-09
DataValue, -3, -3.6370000000000006E-11, -1.1510300000000001E-09
DataValue, -2.8000000000000003, -3.365E-11, -5.1045E-10
DataValue, -2.6, -3.015E-11, -1.1510300000000001E-09
DataValue, -2.4, -2.7290000000000003E-11, -1.1510300000000001E-09
DataValue, -2.2, -2.3950000000000002E-11, -4.9344E-10
DataValue, -2, -2.132E-11, -1.1510300000000001E-09
DataValue, -1.8, -1.817E-11, -6.6453000000000008E-10
DataValue, -1.6, -1.595E-11, -1.1510300000000001E-09
DataValue, -1.4000000000000001, -1.3090000000000002E-11, -5.8012000000000006E-10
DataValue, -1.2, -1.0710000000000001E-11, -1.15104E-09
DataValue, -1, -8.22E-12, -6.9390000000000005E-10
DataValue, -0.8, -5.8600000000000005E-12, -1.1510300000000001E-09
DataValue, -0.6, -3.3600000000000002E-12, -6.4727000000000008E-10
DataValue, -0.4, -1.37E-12, -1.1510300000000001E-09
DataValue, -0.2, 6.6E-13, -6.0940000000000009E-10
DataValue, 0, 2.5600000000000004E-12, -1.15104E-09
DataValue, -14, -4.8409E-10, 2.6559E-10
DataValue, -13.8, -4.8322E-10, 2.7308E-10
DataValue, -13.6, -4.7392000000000006E-10, 3.004E-10
DataValue, -13.4, -4.6456000000000005E-10, 3.7455E-10
DataValue, -13.200000000000001, -4.5582000000000003E-10, 5.5092E-10
DataValue, -13, -4.4664E-10, 9.3796000000000014E-10
DataValue, -12.8, -4.4174E-10, 1.6237E-09
DataValue, -12.6, -4.3249E-10, 3.1915E-09
DataValue, -12.4, -4.2342E-10, 5.9704E-09
DataValue, -12.200000000000001, -4.1401000000000005E-10, 1.0506799999999999E-08
DataValue, -12, -4.0638000000000005E-10, 1.8322999999999998E-08
DataValue, -11.8, -3.9761000000000004E-10, 3.0484E-08
DataValue, -11.6, -3.8903000000000005E-10, 4.8599E-08
DataValue, -11.4, -3.8025E-10, 7.4766E-08
DataValue, -11.200000000000001, -3.7146000000000003E-10, 1.1108E-07
DataValue, -11, -3.6283000000000003E-10, 1.595E-07
DataValue, -10.8, -3.5362E-10, 2.2206E-07
DataValue, -10.6, -3.4475E-10, 3.0108E-07
DataValue, -10.4, -3.3588000000000003E-10, 3.9758E-07
DataValue, -10.200000000000001, -3.2723E-10, 5.1358E-07
DataValue, -10, -3.1831E-10, 6.4908E-07
DataValue, -9.8, -3.0966000000000005E-10, 8.0658E-07
DataValue, -9.6, -3.0136000000000003E-10, 9.8562E-07
DataValue, -9.4, -2.9295E-10, 1.1793E-06
DataValue, -9.2000000000000011, -2.8506000000000005E-10, 1.4040000000000002E-06
DataValue, -9, -2.7685000000000003E-10, 1.6479000000000001E-06
DataValue, -8.8, -2.6839000000000004E-10, 1.9097E-06
DataValue, -8.6, -2.6011000000000005E-10, 2.1919E-06
DataValue, -8.4, -2.52E-10, 2.4908000000000004E-06
DataValue, -8.2, -2.4384E-10, 2.8070000000000004E-06
DataValue, -8, -2.3585E-10, 3.137E-06
DataValue, -7.8, -2.2780000000000003E-10, 3.4819000000000005E-06
DataValue, -7.6000000000000005, -2.2023000000000002E-10, 3.8396000000000005E-06
DataValue, -7.4, -2.1253000000000002E-10, 4.2088E-06
DataValue, -7.2, -2.0470000000000003E-10, 4.5857000000000008E-06
DataValue, -7, -1.9713000000000002E-10, 4.9726000000000005E-06
DataValue, -6.8, -1.8962000000000001E-10, 5.3669E-06
DataValue, -6.6000000000000005, -1.8254000000000002E-10, 5.7666000000000008E-06
DataValue, -6.4, -1.7535000000000002E-10, 6.1703000000000009E-06
DataValue, -6.2, -1.6799E-10, 6.5785000000000006E-06
DataValue, -6, -1.6077E-10, 6.9885000000000009E-06
DataValue, -5.8, -1.5424E-10, 7.4012E-06
DataValue, -5.6000000000000005, -1.4741E-10, 7.8142E-06
DataValue, -5.4, -1.4052000000000002E-10, 8.2274E-06
DataValue, -5.2, -1.3398E-10, 8.6397000000000013E-06
DataValue, -5, -1.2758000000000001E-10, 9.0488E-06
DataValue, -4.8, -1.2095E-10, 9.4576E-06
DataValue, -4.6000000000000005, -1.1473000000000001E-10, 9.8638E-06
DataValue, -4.4, -1.0835E-10, 1.02665E-05
DataValue, -4.2, -1.0214000000000001E-10, 1.06658E-05
DataValue, -4, -9.6120000000000013E-11, 1.1061200000000002E-05
DataValue, -3.8000000000000003, -9.01E-11, 1.1453400000000001E-05
DataValue, -3.6, -8.4460000000000011E-11, 1.1836E-05
DataValue, -3.4, -7.8310000000000012E-11, 1.2218E-05
DataValue, -3.2, -7.269000000000001E-11, 1.2594E-05
DataValue, -3, -6.752E-11, 1.2966000000000001E-05
DataValue, -2.8000000000000003, -6.1610000000000007E-11, 1.3334E-05
DataValue, -2.6, -5.641E-11, 1.3694E-05
DataValue, -2.4, -5.1250000000000004E-11, 1.4048E-05
DataValue, -2.2, -4.581E-11, 1.4398E-05
DataValue, -2, -4.1280000000000005E-11, 1.4742E-05
DataValue, -1.8, -3.612E-11, 1.5080000000000001E-05
DataValue, -1.6, -3.1440000000000003E-11, 1.541E-05
DataValue, -1.4000000000000001, -2.6590000000000002E-11, 1.5736E-05
DataValue, -1.2, -2.234E-11, 1.6056E-05
DataValue, -1, -1.823E-11, 1.637E-05
DataValue, -0.8, -1.3560000000000001E-11, 1.668E-05
DataValue, -0.6, -9.37E-12, 1.6982E-05
DataValue, -0.4, -5.3100000000000006E-12, 1.7276000000000002E-05
DataValue, -0.2, -1.6600000000000002E-12, 1.7568000000000002E-05
DataValue, 0, 2.41E-12, 1.785E-05
DataValue, -14, -7.0217000000000007E-10, 3.9909E-10
DataValue, -13.8, -6.9768E-10, 4.1108000000000004E-10
DataValue, -13.6, -6.8334E-10, 4.5668E-10
DataValue, -13.4, -6.7032E-10, 5.8040000000000008E-10
DataValue, -13.200000000000001, -6.5666000000000009E-10, 8.7665000000000007E-10
DataValue, -13, -6.507E-10, 1.4255E-09
DataValue, -12.8, -6.3457E-10, 2.8354E-09
DataValue, -12.6, -6.2141E-10, 5.4753E-09
DataValue, -12.4, -6.0818000000000006E-10, 1.03493E-08
DataValue, -12.200000000000001, -5.9821E-10, 1.7816999999999997E-08
DataValue, -12, -5.8376000000000006E-10, 3.2038E-08
DataValue, -11.8, -5.7101000000000008E-10, 5.4200199999999993E-08
DataValue, -11.6, -5.5863000000000007E-10, 8.736379999999999E-08
DataValue, -11.4, -5.4644E-10, 1.3486E-07
DataValue, -11.200000000000001, -5.3318E-10, 2.0272E-07
DataValue, -11, -5.2065000000000006E-10, 2.9352E-07
DataValue, -10.8, -5.0790000000000008E-10, 4.1136E-07
DataValue, -10.6, -4.9541E-10, 5.607E-07
DataValue, -10.4, -4.8291E-10, 7.4413999999999994E-07
DataValue, -10.200000000000001, -4.7054E-10, 9.6566E-07
DataValue, -10, -4.5952000000000003E-10, 1.2136000000000001E-06
DataValue, -9.8, -4.4743E-10, 1.5215000000000002E-06
DataValue, -9.6, -4.3461E-10, 1.8691000000000002E-06
DataValue, -9.4, -4.2299000000000006E-10, 2.2590000000000003E-06
DataValue, -9.2000000000000011, -4.1121E-10, 2.6904E-06
DataValue, -9, -3.995E-10, 3.1634000000000005E-06
DataValue, -8.8, -3.8776E-10, 3.6735000000000005E-06
DataValue, -8.6, -3.7613E-10, 4.2252000000000006E-06
DataValue, -8.4, -3.6538000000000003E-10, 4.8111E-06
DataValue, -8.2, -3.5392E-10, 5.4321000000000009E-06
DataValue, -8, -3.4239000000000004E-10, 6.0814000000000008E-06
DataValue, -7.8, -3.3180000000000003E-10, 6.7603E-06
DataValue, -7.6000000000000005, -3.2112E-10, 7.4658000000000006E-06
DataValue, -7.4, -3.0983E-10, 8.1931000000000012E-06
DataValue, -7.2, -2.9976E-10, 8.9414E-06
DataValue, -7, -2.8891000000000004E-10, 9.7081000000000011E-06
DataValue, -6.8, -2.7883E-10, 1.04889E-05
DataValue, -6.6000000000000005, -2.6881000000000003E-10, 1.12824E-05
DataValue, -6.4, -2.5872E-10, 1.2074E-05
DataValue, -6.2, -2.491E-10, 1.289E-05
DataValue, -6, -2.3919000000000003E-10, 1.3708E-05
DataValue, -5.8, -2.2948000000000002E-10, 1.4534E-05
DataValue, -5.6000000000000005, -2.1986000000000003E-10, 1.5358E-05
DataValue, -5.4, -2.0997000000000003E-10, 1.6184E-05
DataValue, -5.2, -2.0048000000000002E-10, 1.701E-05
DataValue, -5, -1.9152000000000003E-10, 1.7824E-05
DataValue, -4.8, -1.8242E-10, 1.8642000000000002E-05
DataValue, -4.6000000000000005, -1.7308E-10, 1.9458E-05
DataValue, -4.4, -1.6456000000000002E-10, 2.0264E-05
DataValue, -4.2, -1.5533000000000002E-10, 2.106E-05
DataValue, -4, -1.4637E-10, 2.1856000000000002E-05
DataValue, -3.8000000000000003, -1.3785000000000002E-10, 2.2642E-05
DataValue, -3.6, -1.2966000000000002E-10, 2.3416E-05
DataValue, -3.4, -1.2094E-10, 2.4182E-05
DataValue, -3.2, -1.1268E-10, 2.4936E-05
DataValue, -3, -1.0459000000000001E-10, 2.5684E-05
DataValue, -2.8000000000000003, -9.6700000000000012E-11, 2.642E-05
DataValue, -2.6, -8.825E-11, 2.7144E-05
DataValue, -2.4, -8.1040000000000012E-11, 2.7854E-05
DataValue, -2.2, -7.345E-11, 2.8562000000000002E-05
DataValue, -2, -6.623E-11, 2.925E-05
DataValue, -1.8, -5.914E-11, 2.9928000000000002E-05
DataValue, -1.6, -5.1770000000000006E-11, 3.0596E-05
DataValue, -1.4000000000000001, -4.487E-11, 3.1252E-05
DataValue, -1.2, -3.812E-11, 3.1896E-05
DataValue, -1, -3.194E-11, 3.2528000000000004E-05
DataValue, -0.8, -2.52E-11, 3.315E-05
DataValue, -0.6, -1.8840000000000003E-11, 3.3758000000000004E-05
DataValue, -0.4, -1.2640000000000001E-11, 3.4356E-05
DataValue, -0.2, -7.06E-12, 3.4942E-05
DataValue, 0, -1.09E-12, 3.5514E-05
DataValue, -14, -9.3561E-10, 5.472E-10
DataValue, -13.8, -9.2546E-10, 5.6131E-10
DataValue, -13.6, -9.0698000000000011E-10, 6.1686000000000008E-10
DataValue, -13.4, -8.8871E-10, 7.7122000000000005E-10
DataValue, -13.200000000000001, -8.7362E-10, 1.1147E-09
DataValue, -13, -8.5759E-10, 1.9885E-09
DataValue, -12.8, -8.3979000000000005E-10, 3.7572E-09
DataValue, -12.6, -8.2275000000000008E-10, 7.1959E-09
DataValue, -12.4, -8.0835000000000011E-10, 1.2906399999999998E-08
DataValue, -12.200000000000001, -7.8961E-10, 2.4306799999999996E-08
DataValue, -12, -7.7337000000000009E-10, 4.3135999999999997E-08
DataValue, -11.8, -7.5633E-10, 7.2785599999999992E-08
DataValue, -11.6, -7.4012E-10, 1.175E-07
DataValue, -11.4, -7.2292E-10, 1.8448E-07
DataValue, -11.200000000000001, -7.0611000000000006E-10, 2.7764E-07
DataValue, -11, -6.9004E-10, 4.0336E-07
DataValue, -10.8, -6.7348E-10, 5.6762E-07
DataValue, -10.6, -6.5722E-10, 7.7678E-07
DataValue, -10.4, -6.4115E-10, 1.03582E-06
DataValue, -10.200000000000001, -6.313500000000001E-10, 1.3331000000000002E-06
DataValue, -10, -6.1053000000000006E-10, 1.7123000000000001E-06
DataValue, -9.8, -5.9461000000000008E-10, 2.149E-06
DataValue, -9.6, -5.788E-10, 2.6498000000000004E-06
DataValue, -9.4, -5.6321000000000006E-10, 3.2115000000000005E-06
DataValue, -9.2000000000000011, -5.4818000000000007E-10, 3.8391E-06
DataValue, -9, -5.3304000000000005E-10, 4.5255E-06
DataValue, -8.8, -5.1795000000000006E-10, 5.2709000000000006E-06
DataValue, -8.6, -5.0343000000000009E-10, 6.0759000000000006E-06
DataValue, -8.4, -4.8855E-10, 6.9348000000000009E-06
DataValue, -8.2, -4.7422E-10, 7.845E-06
DataValue, -8, -4.5971000000000006E-10, 8.8008E-06
DataValue, -7.8, -4.4592000000000005E-10, 9.803E-06
DataValue, -7.6000000000000005, -4.3199E-10, 1.0844800000000002E-05
DataValue, -7.4, -4.1813000000000003E-10, 1.1906000000000001E-05
DataValue, -7.2, -4.0505E-10, 1.3018E-05
DataValue, -7, -3.9149E-10, 1.4154E-05
