
SetupTitle, IdVg
PrimitiveTest, I/V Sweep
TestParameter, Context.MainFrame, B1500A
TestParameter, Channel.UnitType, SMU, SMU, SMU
TestParameter, Channel.Unit, SMU2:HR, SMU4:HR, SMU3:HR
TestParameter, Channel.IName, IG, ID, IS
TestParameter, Channel.VName, VG, VD, VS
TestParameter, Channel.Mode, V, V, V
TestParameter, Channel.Func, VAR1, VAR2, CONST
TestParameter, Channel.Index, 
TestParameter, Channel.Time, 
TestParameter, Measurement.Port.Unit, SMU2:HR, SMU4:HR, SMU3:HR
TestParameter, Measurement.Port.SeriesResistor, NONE, NONE, NONE
TestParameter, Measurement.Port.Filter, ON, ON, ON
TestParameter, Measurement.Port.OutputVoltageComparison, 0, 0, 0
TestParameter, Measurement.Primary.Locus, Single
TestParameter, Measurement.Primary.Scale, LINEAR
TestParameter, Measurement.Primary.Start, -14
TestParameter, Measurement.Primary.Stop, 8
TestParameter, Measurement.Primary.Step, 0.2
TestParameter, Measurement.Primary.Compliance, 0.01
TestParameter, Measurement.Primary.PowerCompliance, 0
TestParameter, Measurement.Aborting.Condition, CONTINUE AT ANY
TestParameter, Measurement.PostOutput.Value, START
TestParameter, Measurement.PostOutput.Retention, OFF
TestParameter, Measurement.Secondary.Start, 0
TestParameter, Measurement.Secondary.Count, 51
TestParameter, Measurement.Secondary.Step, 0.2
TestParameter, Measurement.Secondary.Compliance, 0.01
TestParameter, Measurement.Secondary.PowerCompliance, 0
TestParameter, Measurement.Bias.Source, -14, 0, 0
TestParameter, Measurement.Bias.Compliance, 0.01, 0.01, 0.01
TestParameter, Measurement.Monitor.Unit, SMU2:HR, SMU4:HR, SMU3:HR
TestParameter, Measurement.Monitor.Adc, HR ADC, HR ADC, HR ADC
TestParameter, Measurement.Monitor.Measurement, Compliance Side, Compliance Side, Compliance Side
TestParameter, Measurement.Monitor.RangingMode, LIMITED, LIMITED, LIMITED
TestParameter, Measurement.Monitor.RangeBoundary, 1nA, 1nA, 1nA
TestParameter, Measurement.Monitor.RangeRating, BY FULL RANGE, BY FULL RANGE, BY FULL RANGE
TestParameter, Measurement.Monitor.RangeRatingCoeff, 50, 50, 50
TestParameter, Measurement.Timing.Hold, 0
TestParameter, Measurement.Timing.Delay, 0
TestParameter, Measurement.Adc.HighSpeed.Mode, AUTO
TestParameter, Measurement.Adc.HighSpeed.Coeff, 1
TestParameter, Measurement.Adc.HighResolution.AutoZero, OFF
TestParameter, Measurement.Adc.HighResolution.Mode, AUTO
TestParameter, Measurement.Adc.HighResolution.Coeff, 6
TestParameter, Measurement.WaitTime.Source.Coeff, 1
TestParameter, Measurement.WaitTime.Source.Offset, 0
TestParameter, Measurement.WaitTime.Monitor.Coeff, 1
TestParameter, Measurement.WaitTime.Monitor.Offset, 0
TestParameter, Output.Graph.Enabled, true
TestParameter, Output.Graph.AutoScaling, false
TestParameter, Output.Graph.XAxis.Data, VG
TestParameter, Output.Graph.XAxis.Scale, Linear
TestParameter, Output.Graph.XAxis.Left, -14
TestParameter, Output.Graph.XAxis.Right, 0
TestParameter, Output.Graph.XAxis.RunTimeAutoScale, true
TestParameter, Output.Graph.YAxis.Data, ID, IG
TestParameter, Output.Graph.YAxis.Scale, Linear, Linear
TestParameter, Output.Graph.YAxis.Bottom, -0.01, -0.1
TestParameter, Output.Graph.YAxis.Top, 0.01, 0.1
TestParameter, Output.Graph.YAxis.Group, , 
TestParameter, Output.Graph.YAxis.RunTimeAutoScale, true, true
TestParameter, AutoAnalysis.Interpolation, false
TestParameter, AutoAnalysis.Line1.Enabled, false
TestParameter, AutoAnalysis.Line1.Type, 1
TestParameter, AutoAnalysis.Line1.Fix, True
TestParameter, AutoAnalysis.Line1.YAxis, 0
TestParameter, AutoAnalysis.Line1.Point1.Type, 0
TestParameter, AutoAnalysis.Line1.Point1.XY.X, 
TestParameter, AutoAnalysis.Line1.Point1.XY.Y, 
TestParameter, AutoAnalysis.Line1.Point1.Data.Var, 
TestParameter, AutoAnalysis.Line1.Point1.Data.Condition, 
TestParameter, AutoAnalysis.Line1.Point1.Data.Start, false
TestParameter, AutoAnalysis.Line1.Point1.Data.StartVar, 
TestParameter, AutoAnalysis.Line1.Point1.Data.StartCondition, 
TestParameter, AutoAnalysis.Line1.Point2.Type, 0
TestParameter, AutoAnalysis.Line1.Point2.XY.X, 
TestParameter, AutoAnalysis.Line1.Point2.XY.Y, 
TestParameter, AutoAnalysis.Line1.Point2.Data.Var, 
TestParameter, AutoAnalysis.Line1.Point2.Data.Condition, 
TestParameter, AutoAnalysis.Line1.Point2.Data.Start, false
TestParameter, AutoAnalysis.Line1.Point2.Data.StartVar, 
TestParameter, AutoAnalysis.Line1.Point2.Data.StartCondition, 
TestParameter, AutoAnalysis.Line1.GradientExpr, 0
TestParameter, AutoAnalysis.Line2.Enabled, false
TestParameter, AutoAnalysis.Line2.Type, 1
TestParameter, AutoAnalysis.Line2.Fix, True
TestParameter, AutoAnalysis.Line2.YAxis, 0
TestParameter, AutoAnalysis.Line2.Point1.Type, 0
TestParameter, AutoAnalysis.Line2.Point1.XY.X, 
TestParameter, AutoAnalysis.Line2.Point1.XY.Y, 
TestParameter, AutoAnalysis.Line2.Point1.Data.Var, 
TestParameter, AutoAnalysis.Line2.Point1.Data.Condition, 
TestParameter, AutoAnalysis.Line2.Point1.Data.Start, false
TestParameter, AutoAnalysis.Line2.Point1.Data.StartVar, 
TestParameter, AutoAnalysis.Line2.Point1.Data.StartCondition, 
TestParameter, AutoAnalysis.Line2.Point2.Type, 0
TestParameter, AutoAnalysis.Line2.Point2.XY.X, 
TestParameter, AutoAnalysis.Line2.Point2.XY.Y, 
TestParameter, AutoAnalysis.Line2.Point2.Data.Var, 
TestParameter, AutoAnalysis.Line2.Point2.Data.Condition, 
TestParameter, AutoAnalysis.Line2.Point2.Data.Start, false
TestParameter, AutoAnalysis.Line2.Point2.Data.StartVar, 
TestParameter, AutoAnalysis.Line2.Point2.Data.StartCondition, 
TestParameter, AutoAnalysis.Line2.GradientExpr, 0
TestParameter, AutoAnalysis.Marker.Enabled, false
TestParameter, AutoAnalysis.Marker.Data.Var, 
TestParameter, AutoAnalysis.Marker.Data.Condition, 
TestParameter, AutoAnalysis.Marker.Data.Start, false
TestParameter, AutoAnalysis.Marker.Data.StartVar, 
TestParameter, AutoAnalysis.Marker.Data.StartCondition, 
MetaData, TestRecord.EntryPoint, true
MetaData, TestRecord.RecordTime, 05/02/2022 17:39:24
MetaData, TestRecord.TestTarget, 
MetaData, TestRecord.IterationIndex, 3
MetaData, TestRecord.Preservation, true
MetaData, TestRecord.Flag, 
MetaData, TestRecord.Remarks, 30/5 IVgsVds
MetaData, TestRecord.LinkKey, 568d61a9-b7de-4a00-8c52-5b0dbb923c7d
Dimension1, 111, 111, 111
Dimension2, 51, 51, 51
DataName, VG, IG, ID
DataValue, -14, -1.5053000000000002E-10, 8.985E-11
DataValue, -13.8, -1.5197000000000002E-10, 8.8410000000000008E-11
DataValue, -13.6, -1.4990000000000002E-10, 8.7500000000000008E-11
DataValue, -13.4, -1.4695000000000002E-10, 8.6150000000000008E-11
DataValue, -13.200000000000001, -1.4473E-10, 8.4220000000000007E-11
DataValue, -13, -1.42E-10, 8.246E-11
DataValue, -12.8, -1.3934E-10, 8.122E-11
DataValue, -12.6, -1.3684000000000002E-10, 7.9910000000000011E-11
DataValue, -12.4, -1.3455000000000002E-10, 7.8230000000000011E-11
DataValue, -12.200000000000001, -1.3194E-10, 7.6740000000000011E-11
DataValue, -12, -1.2904E-10, 7.499E-11
DataValue, -11.8, -1.2671000000000002E-10, 7.348E-11
DataValue, -11.6, -1.2404000000000002E-10, 7.216E-11
DataValue, -11.4, -1.2135E-10, 7.0760000000000009E-11
DataValue, -11.200000000000001, -1.1830000000000002E-10, 6.8800000000000011E-11
DataValue, -11, -1.1600000000000001E-10, 6.7430000000000007E-11
DataValue, -10.8, -1.1349000000000001E-10, 6.559E-11
DataValue, -10.6, -1.1056E-10, 6.394E-11
DataValue, -10.4, -1.0802E-10, 6.268000000000001E-11
DataValue, -10.200000000000001, -1.0551E-10, 6.0950000000000007E-11
DataValue, -10, -1.0284E-10, 5.953E-11
DataValue, -9.8, -1.0018000000000001E-10, 5.7340000000000006E-11
DataValue, -9.6, -9.7700000000000009E-11, 5.626E-11
DataValue, -9.4, -9.4580000000000011E-11, 5.4020000000000004E-11
DataValue, -9.2000000000000011, -9.2180000000000012E-11, 5.2160000000000004E-11
DataValue, -9, -8.973000000000001E-11, 5.127E-11
DataValue, -8.8, -8.7080000000000011E-11, 5.16E-11
DataValue, -8.6, -8.4360000000000006E-11, 4.305E-11
DataValue, -8.4, -8.2090000000000011E-11, 4.384E-11
DataValue, -8.2, -7.946E-11, 3.8370000000000006E-11
DataValue, -8, -7.688000000000001E-11, 3.741E-11
DataValue, -7.8, -7.43E-11, 3.732E-11
DataValue, -7.6000000000000005, -7.18E-11, 3.5450000000000004E-11
DataValue, -7.4, -6.927000000000001E-11, 2.7700000000000002E-11
DataValue, -7.2, -6.688E-11, 2.431E-11
DataValue, -7, -6.43E-11, 2.3300000000000003E-11
DataValue, -6.8, -6.184E-11, 1.5E-11
DataValue, -6.6000000000000005, -5.96E-11, 1.2340000000000001E-11
DataValue, -6.4, -5.6930000000000004E-11, 1.93E-11
DataValue, -6.2, -5.4970000000000005E-11, 1.3760000000000001E-11
DataValue, -6, -5.229E-11, 3.3900000000000003E-12
DataValue, -5.8, -5.0320000000000007E-11, 2.8E-13
DataValue, -5.6000000000000005, -4.789E-11, 1.1600000000000001E-12
DataValue, -5.4, -4.585E-11, 4.1400000000000005E-12
DataValue, -5.2, -4.3610000000000005E-11, -6.04E-12
DataValue, -5, -4.112E-11, -4.89E-12
DataValue, -4.8, -3.9050000000000003E-11, -1.2240000000000001E-11
DataValue, -4.6000000000000005, -3.7240000000000005E-11, -8.56E-12
DataValue, -4.4, -3.507E-11, -1.817E-11
DataValue, -4.2, -3.273E-11, -1.1660000000000002E-11
DataValue, -4, -3.107E-11, -1.519E-11
DataValue, -3.8000000000000003, -2.888E-11, -2.0490000000000002E-11
DataValue, -3.6, -2.6870000000000003E-11, -1.865E-11
DataValue, -3.4, -2.469E-11, -2.4920000000000003E-11
DataValue, -3.2, -2.2950000000000002E-11, -2.484E-11
DataValue, -3, -2.107E-11, -2.5100000000000003E-11
DataValue, -2.8000000000000003, -1.9420000000000002E-11, -2.2210000000000003E-11
DataValue, -2.6, -1.7270000000000002E-11, -2.5830000000000003E-11
DataValue, -2.4, -1.582E-11, -3.0650000000000005E-11
DataValue, -2.2, -1.391E-11, -2.671E-11
DataValue, -2, -1.2330000000000001E-11, -2.8200000000000003E-11
DataValue, -1.8, -1.075E-11, -2.6370000000000002E-11
DataValue, -1.6, -9.04E-12, -3.313E-11
DataValue, -1.4000000000000001, -7.42E-12, -2.7710000000000004E-11
DataValue, -1.2, -5.9700000000000006E-12, -3.1890000000000006E-11
DataValue, -1, -4.42E-12, -3.1560000000000005E-11
DataValue, -0.8, -2.9100000000000003E-12, -3.576E-11
DataValue, -0.6, -1.7200000000000001E-12, -3.7010000000000003E-11
DataValue, -0.4, -8.0000000000000013E-14, -4.428E-11
DataValue, -0.2, 1.03E-12, -4.0990000000000005E-11
DataValue, 0, 2.3200000000000002E-12, -4.4010000000000005E-11
DataValue, 0.2, 3.5700000000000003E-12, -4.144E-11
DataValue, 0.4, 4.9000000000000005E-12, -4.7620000000000006E-11
DataValue, 0.6, 6.1E-12, -4.6370000000000004E-11
DataValue, 0.8, 7.0500000000000009E-12, -4.913E-11
DataValue, 1, 8.74E-12, -4.6820000000000006E-11
DataValue, 1.2, 9.8000000000000011E-12, -4.767E-11
DataValue, 1.4000000000000001, 1.0720000000000001E-11, -5.258E-11
DataValue, 1.6, 1.1840000000000001E-11, -4.4710000000000006E-11
DataValue, 1.8, 1.321E-11, -4.545E-11
DataValue, 2, 1.4170000000000001E-11, -5.1700000000000006E-11
DataValue, 2.2, 1.5270000000000003E-11, -5.4690000000000007E-11
DataValue, 2.4, 1.646E-11, -5.105E-11
DataValue, 2.6, 1.7600000000000003E-11, -4.862E-11
DataValue, 2.8000000000000003, 1.8070000000000002E-11, -5.3910000000000004E-11
DataValue, 3, 1.919E-11, -5.5580000000000003E-11
DataValue, 3.2, 1.972E-11, -5.204E-11
DataValue, 3.4, 2.0770000000000003E-11, -5.7290000000000003E-11
DataValue, 3.6, 2.1530000000000002E-11, -5.5780000000000007E-11
DataValue, 3.8000000000000003, 2.2100000000000003E-11, -5.448E-11
DataValue, 4, 2.3080000000000003E-11, -5.3290000000000004E-11
DataValue, 4.2, 2.3610000000000003E-11, -5.2540000000000007E-11
DataValue, 4.4, 2.398E-11, -5.5290000000000004E-11
DataValue, 4.6000000000000005, 2.453E-11, -5.495E-11
DataValue, 4.8, 2.5370000000000002E-11, -6.107E-11
DataValue, 5, 2.56E-11, -5.4760000000000007E-11
DataValue, 5.2, 2.6120000000000003E-11, -5.856E-11
DataValue, 5.4, 2.68E-11, -5.455E-11
DataValue, 5.6000000000000005, 2.7600000000000004E-11, -5.8490000000000009E-11
DataValue, 5.8, 2.8380000000000003E-11, -5.36E-11
DataValue, 6, 2.8580000000000003E-11, -5.4100000000000006E-11
DataValue, 6.2, 2.916E-11, -6.014E-11
DataValue, 6.4, 2.9730000000000004E-11, -5.6730000000000007E-11
DataValue, 6.6000000000000005, 3.0940000000000005E-11, -6.632000000000001E-11
DataValue, 6.8, 3.117E-11, -6.5250000000000007E-11
DataValue, 7, 3.1590000000000004E-11, -5.843E-11
DataValue, 7.2, 3.205E-11, -6.491E-11
DataValue, 7.4, 3.2900000000000004E-11, -6.548E-11
DataValue, 7.6000000000000005, 3.38E-11, -6.838E-11
DataValue, 7.8, 3.426E-11, -6.565E-11
DataValue, 8, 3.4610000000000004E-11, -7.001E-11
DataValue, -14, -2.0671000000000003E-10, 1.2605000000000002E-10
DataValue, -13.8, -2.1065000000000002E-10, 1.2496E-10
DataValue, -13.6, -2.0796000000000002E-10, 1.2335000000000002E-10
DataValue, -13.4, -2.0517000000000003E-10, 1.2127E-10
DataValue, -13.200000000000001, -2.0182E-10, 1.1996000000000002E-10
DataValue, -13, -1.9933000000000002E-10, 1.184E-10
DataValue, -12.8, -1.9559000000000002E-10, 1.1720000000000002E-10
DataValue, -12.6, -1.9263E-10, 1.1576000000000001E-10
DataValue, -12.4, -1.8953000000000002E-10, 1.1691000000000001E-10
DataValue, -12.200000000000001, -1.8590000000000003E-10, 1.2144000000000002E-10
DataValue, -12, -1.8239E-10, 1.33E-10
DataValue, -11.8, -1.7937000000000002E-10, 1.6047000000000002E-10
DataValue, -11.6, -1.7559E-10, 2.1741000000000003E-10
DataValue, -11.4, -1.7213E-10, 3.2846E-10
DataValue, -11.200000000000001, -1.6838000000000002E-10, 5.3484000000000009E-10
DataValue, -11, -1.6535E-10, 9.0198E-10
DataValue, -10.8, -1.6238E-10, 1.4205E-09
DataValue, -10.6, -1.5889E-10, 2.4975E-09
DataValue, -10.4, -1.5533000000000002E-10, 4.1387E-09
DataValue, -10.200000000000001, -1.5147000000000002E-10, 6.6173E-09
DataValue, -10, -1.4770000000000002E-10, 1.01153E-08
DataValue, -9.8, -1.4466000000000002E-10, 1.4686999999999998E-08
DataValue, -9.6, -1.4067000000000002E-10, 2.1416599999999997E-08
DataValue, -9.4, -1.3719000000000002E-10, 3.01258E-08
DataValue, -9.2000000000000011, -1.3383000000000002E-10, 4.0952999999999996E-08
DataValue, -9, -1.2988000000000002E-10, 5.41796E-08
DataValue, -8.8, -1.2652000000000002E-10, 6.9596599999999989E-08
DataValue, -8.6, -1.2279E-10, 8.7276599999999986E-08
DataValue, -8.4, -1.1897E-10, 1.0679979999999999E-07
DataValue, -8.2, -1.1562000000000001E-10, 1.2783999999999999E-07
DataValue, -8, -1.1215000000000001E-10, 1.5066E-07
DataValue, -7.8, -1.0832000000000001E-10, 1.7316E-07
DataValue, -7.6000000000000005, -1.0469E-10, 1.9622E-07
DataValue, -7.4, -1.0140000000000001E-10, 2.1752E-07
DataValue, -7.2, -9.745000000000001E-11, 2.4106E-07
DataValue, -7, -9.4170000000000009E-11, 2.6262E-07
DataValue, -6.8, -9.084E-11, 2.813E-07
DataValue, -6.6000000000000005, -8.762E-11, 3.0086E-07
DataValue, -6.4, -8.4320000000000012E-11, 3.1935999999999997E-07
DataValue, -6.2, -8.059E-11, 3.3614E-07
DataValue, -6, -7.759E-11, 3.5086E-07
DataValue, -5.8, -7.4350000000000007E-11, 3.6724E-07
DataValue, -5.6000000000000005, -7.107E-11, 3.8074E-07
DataValue, -5.4, -6.766E-11, 3.9544E-07
DataValue, -5.2, -6.4690000000000011E-11, 4.11E-07
DataValue, -5, -6.1720000000000008E-11, 4.2208E-07
DataValue, -4.8, -5.842E-11, 4.3135999999999997E-07
DataValue, -4.6000000000000005, -5.546E-11, 4.4274E-07
DataValue, -4.4, -5.269E-11, 4.5754E-07
DataValue, -4.2, -4.963E-11, 4.596E-07
DataValue, -4, -4.6370000000000004E-11, 4.6748E-07
DataValue, -3.8000000000000003, -4.3720000000000005E-11, 4.735E-07
DataValue, -3.6, -4.097E-11, 4.7746E-07
DataValue, -3.4, -3.821E-11, 4.8944E-07
DataValue, -3.2, -3.558E-11, 4.9442E-07
DataValue, -3, -3.2870000000000005E-11, 4.9738E-07
DataValue, -2.8000000000000003, -3.0130000000000003E-11, 5.026E-07
DataValue, -2.6, -2.7710000000000004E-11, 5.0046E-07
DataValue, -2.4, -2.4770000000000002E-11, 5.092E-07
DataValue, -2.2, -2.2660000000000002E-11, 5.0612E-07
DataValue, -2, -1.9970000000000003E-11, 5.1112E-07
DataValue, -1.8, -1.7780000000000002E-11, 5.1975999999999994E-07
DataValue, -1.6, -1.539E-11, 5.2104E-07
DataValue, -1.4000000000000001, -1.3050000000000001E-11, 5.1924E-07
DataValue, -1.2, -1.108E-11, 5.2836E-07
DataValue, -1, -8.66E-12, 5.264E-07
DataValue, -0.8, -6.36E-12, 5.3286E-07
DataValue, -0.6, -4.41E-12, 5.4138E-07
DataValue, -0.4, -2.14E-12, 5.3372E-07
DataValue, -0.2, -3.5E-13, 5.4164E-07
DataValue, 0, 1.5400000000000001E-12, 5.4805999999999995E-07
DataValue, 0.2, 3.4400000000000003E-12, 5.4556E-07
DataValue, 0.4, 5.19E-12, 5.49E-07
DataValue, 0.6, 6.9300000000000006E-12, 5.5318E-07
DataValue, 0.8, 8.86E-12, 5.4879999999999994E-07
DataValue, 1, 1.047E-11, 5.6348E-07
DataValue, 1.2, 1.231E-11, 5.6338E-07
DataValue, 1.4000000000000001, 1.422E-11, 5.5952E-07
DataValue, 1.6, 1.5940000000000002E-11, 5.5876E-07
DataValue, 1.8, 1.726E-11, 5.5754E-07
DataValue, 2, 1.923E-11, 5.5964E-07
DataValue, 2.2, 2.0480000000000003E-11, 5.5744E-07
DataValue, 2.4, 2.1970000000000003E-11, 5.469E-07
DataValue, 2.6, 2.391E-11, 5.5628E-07
DataValue, 2.8000000000000003, 2.513E-11, 5.6208E-07
DataValue, 3, 2.6300000000000002E-11, 5.6803999999999994E-07
DataValue, 3.2, 2.777E-11, 5.6691999999999994E-07
DataValue, 3.4, 2.897E-11, 5.607E-07
DataValue, 3.6, 2.996E-11, 5.6383999999999995E-07
DataValue, 3.8000000000000003, 3.081E-11, 5.6308E-07
DataValue, 4, 3.1810000000000004E-11, 5.7826E-07
DataValue, 4.2, 3.259E-11, 5.8324E-07
DataValue, 4.4, 3.34E-11, 5.7232E-07
DataValue, 4.6000000000000005, 3.391E-11, 5.6422E-07
DataValue, 4.8, 3.5010000000000004E-11, 5.7688E-07
DataValue, 5, 3.565E-11, 5.7088E-07
DataValue, 5.2, 3.6620000000000005E-11, 5.6828E-07
DataValue, 5.4, 3.6840000000000005E-11, 5.6914E-07
DataValue, 5.6000000000000005, 3.7670000000000004E-11, 5.5922E-07
DataValue, 5.8, 3.8360000000000004E-11, 5.8262E-07
DataValue, 6, 3.863E-11, 5.7755999999999994E-07
DataValue, 6.2, 3.94E-11, 5.8682E-07
DataValue, 6.4, 3.97E-11, 5.9112E-07
DataValue, 6.6000000000000005, 4.027E-11, 5.8546E-07
DataValue, 6.8, 4.118E-11, 5.9668E-07
DataValue, 7, 4.17E-11, 5.7966E-07
DataValue, 7.2, 4.235E-11, 6.0104E-07
DataValue, 7.4, 4.2700000000000005E-11, 5.8716E-07
DataValue, 7.6000000000000005, 4.3800000000000006E-11, 5.7876E-07
DataValue, 7.8, 4.3940000000000005E-11, 5.765E-07
DataValue, 8, 4.4630000000000005E-11, 5.772E-07
DataValue, -14, -2.7522E-10, 1.7049000000000002E-10
DataValue, -13.8, -2.7837000000000004E-10, 1.6849E-10
DataValue, -13.6, -2.7513E-10, 1.6650000000000002E-10
DataValue, -13.4, -2.7098000000000003E-10, 1.6402000000000002E-10
DataValue, -13.200000000000001, -2.6691E-10, 1.6186000000000002E-10
DataValue, -13, -2.6311000000000004E-10, 1.5989E-10
DataValue, -12.8, -2.5872E-10, 1.5779E-10
DataValue, -12.6, -2.544E-10, 1.5688E-10
DataValue, -12.4, -2.5015E-10, 1.599E-10
DataValue, -12.200000000000001, -2.4585000000000004E-10, 1.7016E-10
DataValue, -12, -2.4095000000000003E-10, 1.9600000000000002E-10
DataValue, -11.8, -2.3662E-10, 2.5105000000000003E-10
DataValue, -11.6, -2.3172000000000003E-10, 3.6681000000000005E-10
DataValue, -11.4, -2.2713000000000002E-10, 5.8937E-10
DataValue, -11.200000000000001, -2.2258000000000002E-10, 9.2890000000000007E-10
DataValue, -11, -2.2256E-10, 1.5606E-09
DataValue, -10.8, -2.1653000000000003E-10, 2.9129E-09
DataValue, -10.6, -2.1135000000000003E-10, 4.9731E-09
DataValue, -10.4, -2.0676000000000002E-10, 8.195E-09
DataValue, -10.200000000000001, -2.0242E-10, 1.2668199999999999E-08
DataValue, -10, -1.9768E-10, 1.99096E-08
DataValue, -9.8, -1.9255000000000002E-10, 2.98346E-08
DataValue, -9.6, -1.8794000000000003E-10, 4.31168E-08
DataValue, -9.4, -1.8343E-10, 6.0456399999999991E-08
DataValue, -9.2000000000000011, -1.7857E-10, 8.24294E-08
DataValue, -9, -1.7376E-10, 1.0891419999999999E-07
DataValue, -8.8, -1.6906E-10, 1.4012E-07
DataValue, -8.6, -1.6430000000000002E-10, 1.7699999999999998E-07
DataValue, -8.4, -1.5939E-10, 2.1774E-07
DataValue, -8.2, -1.5448000000000002E-10, 2.6194E-07
