
SetupTitle, I/V Sweep
PrimitiveTest, I/V Sweep
TestParameter, Context.MainFrame, B1500A
TestParameter, Channel.UnitType, SMU, SMU, SMU
TestParameter, Channel.Unit, SMU2:HR, SMU3:HR, SMU4:HR
TestParameter, Channel.IName, IG, ID, IS
TestParameter, Channel.VName, VG, VD, VS
TestParameter, Channel.Mode, V, V, V
TestParameter, Channel.Func, VAR2, VAR1, CONST
TestParameter, Channel.Index, 
TestParameter, Channel.Time, 
TestParameter, Measurement.Port.Unit, SMU2:HR, SMU3:HR, SMU4:HR
TestParameter, Measurement.Port.SeriesResistor, NONE, NONE, NONE
TestParameter, Measurement.Port.Filter, ON, ON, ON
TestParameter, Measurement.Port.OutputVoltageComparison, 0, 0, 0
TestParameter, Measurement.Primary.Locus, Single
TestParameter, Measurement.Primary.Scale, LINEAR
TestParameter, Measurement.Primary.Start, 0
TestParameter, Measurement.Primary.Stop, 5
TestParameter, Measurement.Primary.Step, 0.2
TestParameter, Measurement.Primary.Compliance, 0.1
TestParameter, Measurement.Primary.PowerCompliance, 0
TestParameter, Measurement.Aborting.Condition, CONTINUE AT ANY
TestParameter, Measurement.PostOutput.Value, START
TestParameter, Measurement.PostOutput.Retention, OFF
TestParameter, Measurement.Secondary.Start, -14
TestParameter, Measurement.Secondary.Count, 51
TestParameter, Measurement.Secondary.Step, 0.2
TestParameter, Measurement.Secondary.Compliance, 0.0001
TestParameter, Measurement.Secondary.PowerCompliance, 0
TestParameter, Measurement.Bias.Source, -14, 0, 0
TestParameter, Measurement.Bias.Compliance, 0.0001, 0.1, 0.1
TestParameter, Measurement.Monitor.Unit, SMU2:HR, SMU3:HR, SMU4:HR
TestParameter, Measurement.Monitor.Adc, HR ADC, HR ADC, HR ADC
TestParameter, Measurement.Monitor.Measurement, Compliance Side, Compliance Side, Compliance Side
TestParameter, Measurement.Monitor.RangingMode, LIMITED, LIMITED, LIMITED
TestParameter, Measurement.Monitor.RangeBoundary, 1nA, 1nA, 1nA
TestParameter, Measurement.Monitor.RangeRating, BY FULL RANGE, BY FULL RANGE, BY FULL RANGE
TestParameter, Measurement.Monitor.RangeRatingCoeff, 50, 50, 50
TestParameter, Measurement.Timing.Hold, 0
TestParameter, Measurement.Timing.Delay, 0
TestParameter, Measurement.Adc.HighSpeed.Mode, AUTO
TestParameter, Measurement.Adc.HighSpeed.Coeff, 1
TestParameter, Measurement.Adc.HighResolution.AutoZero, OFF
TestParameter, Measurement.Adc.HighResolution.Mode, AUTO
TestParameter, Measurement.Adc.HighResolution.Coeff, 6
TestParameter, Measurement.WaitTime.Source.Coeff, 1
TestParameter, Measurement.WaitTime.Source.Offset, 0
TestParameter, Measurement.WaitTime.Monitor.Coeff, 1
TestParameter, Measurement.WaitTime.Monitor.Offset, 0
TestParameter, Function.User.Name, absId, absIg
TestParameter, Function.User.Unit, , 
TestParameter, Function.User.Definition, abs(ID), abs(IG)
TestParameter, Output.Graph.Enabled, true
TestParameter, Output.Graph.AutoScaling, false
TestParameter, Output.Graph.XAxis.Data, VD
TestParameter, Output.Graph.XAxis.Scale, Linear
TestParameter, Output.Graph.XAxis.Left, 0
TestParameter, Output.Graph.XAxis.Right, 5
TestParameter, Output.Graph.XAxis.RunTimeAutoScale, true
TestParameter, Output.Graph.YAxis.Data, ID
TestParameter, Output.Graph.YAxis.Scale, Linear
TestParameter, Output.Graph.YAxis.Bottom, 0.001
TestParameter, Output.Graph.YAxis.Top, 0.01
TestParameter, Output.Graph.YAxis.Group, Group 1
TestParameter, Output.Graph.YAxis.RunTimeAutoScale, true
TestParameter, AutoAnalysis.Interpolation, false
TestParameter, AutoAnalysis.Line1.Enabled, false
TestParameter, AutoAnalysis.Line1.Type, 2
TestParameter, AutoAnalysis.Line1.Fix, False
TestParameter, AutoAnalysis.Line1.YAxis, 0
TestParameter, AutoAnalysis.Line1.Point1.Type, 0
TestParameter, AutoAnalysis.Line1.Point1.XY.X, VG
TestParameter, AutoAnalysis.Line1.Point1.XY.Y, ID
TestParameter, AutoAnalysis.Line1.Point1.Data.Var, 
TestParameter, AutoAnalysis.Line1.Point1.Data.Condition, 
TestParameter, AutoAnalysis.Line1.Point1.Data.Start, false
TestParameter, AutoAnalysis.Line1.Point1.Data.StartVar, 
TestParameter, AutoAnalysis.Line1.Point1.Data.StartCondition, 
TestParameter, AutoAnalysis.Line1.Point2.Type, 0
TestParameter, AutoAnalysis.Line1.Point2.XY.X, 
TestParameter, AutoAnalysis.Line1.Point2.XY.Y, 
TestParameter, AutoAnalysis.Line1.Point2.Data.Var, 
TestParameter, AutoAnalysis.Line1.Point2.Data.Condition, 
TestParameter, AutoAnalysis.Line1.Point2.Data.Start, false
TestParameter, AutoAnalysis.Line1.Point2.Data.StartVar, 
TestParameter, AutoAnalysis.Line1.Point2.Data.StartCondition, 
TestParameter, AutoAnalysis.Line1.GradientExpr, 0
TestParameter, AutoAnalysis.Line2.Enabled, false
TestParameter, AutoAnalysis.Line2.Type, 1
TestParameter, AutoAnalysis.Line2.Fix, True
TestParameter, AutoAnalysis.Line2.YAxis, 0
TestParameter, AutoAnalysis.Line2.Point1.Type, 0
TestParameter, AutoAnalysis.Line2.Point1.XY.X, 
TestParameter, AutoAnalysis.Line2.Point1.XY.Y, 
TestParameter, AutoAnalysis.Line2.Point1.Data.Var, 
TestParameter, AutoAnalysis.Line2.Point1.Data.Condition, 
TestParameter, AutoAnalysis.Line2.Point1.Data.Start, false
TestParameter, AutoAnalysis.Line2.Point1.Data.StartVar, 
TestParameter, AutoAnalysis.Line2.Point1.Data.StartCondition, 
TestParameter, AutoAnalysis.Line2.Point2.Type, 0
TestParameter, AutoAnalysis.Line2.Point2.XY.X, 
TestParameter, AutoAnalysis.Line2.Point2.XY.Y, 
TestParameter, AutoAnalysis.Line2.Point2.Data.Var, 
TestParameter, AutoAnalysis.Line2.Point2.Data.Condition, 
TestParameter, AutoAnalysis.Line2.Point2.Data.Start, false
TestParameter, AutoAnalysis.Line2.Point2.Data.StartVar, 
TestParameter, AutoAnalysis.Line2.Point2.Data.StartCondition, 
TestParameter, AutoAnalysis.Line2.GradientExpr, 0
TestParameter, AutoAnalysis.Marker.Enabled, false
TestParameter, AutoAnalysis.Marker.Data.Var, 
TestParameter, AutoAnalysis.Marker.Data.Condition, 
TestParameter, AutoAnalysis.Marker.Data.Start, false
TestParameter, AutoAnalysis.Marker.Data.StartVar, 
TestParameter, AutoAnalysis.Marker.Data.StartCondition, 
MetaData, TestRecord.EntryPoint, true
MetaData, TestRecord.RecordTime, 04/11/2022 13:44:55
MetaData, TestRecord.TestTarget, 
MetaData, TestRecord.IterationIndex, 64
MetaData, TestRecord.Preservation, true
MetaData, TestRecord.Flag, 
MetaData, TestRecord.Remarks, 
MetaData, TestRecord.LinkKey, fa474726-d122-4e45-acea-90360161c634
Dimension1, 26, 26, 26, 26, 26
Dimension2, 51, 51, 51, 51, 51
DataName, VD, IG, ID, absId, absIg
DataValue, 0, -8.4970000000000007E-10, 4.5023000000000006E-10, 4.5023000000000006E-10, 8.4970000000000007E-10
DataValue, 0.2, -8.5992000000000007E-10, 1.5727E-09, 1.5727E-09, 8.5992000000000007E-10
DataValue, 0.4, -8.712900000000001E-10, 2.1383E-09, 2.1383E-09, 8.712900000000001E-10
DataValue, 0.6, -8.8406E-10, 2.4577E-09, 2.4577E-09, 8.8406E-10
DataValue, 0.8, -8.971E-10, 2.6645E-09, 2.6645E-09, 8.971E-10
DataValue, 1, -9.1103000000000011E-10, 2.8244E-09, 2.8244E-09, 9.1103000000000011E-10
DataValue, 1.2, -9.248900000000001E-10, 2.9586E-09, 2.9586E-09, 9.248900000000001E-10
DataValue, 1.4000000000000001, -9.3935E-10, 3.0766E-09, 3.0766E-09, 9.3935E-10
DataValue, 1.6, -9.5393E-10, 3.1882E-09, 3.1882E-09, 9.5393E-10
DataValue, 1.8, -9.6874000000000011E-10, 3.2932E-09, 3.2932E-09, 9.6874000000000011E-10
DataValue, 2, -9.8424000000000011E-10, 3.3863E-09, 3.3863E-09, 9.8424000000000011E-10
DataValue, 2.2, -1.00082E-09, 3.482E-09, 3.482E-09, 1.00082E-09
DataValue, 2.4, -1.01656E-09, 3.5809E-09, 3.5809E-09, 1.01656E-09
DataValue, 2.6, -1.0323400000000002E-09, 3.6624E-09, 3.6624E-09, 1.0323400000000002E-09
DataValue, 2.8000000000000003, -1.04941E-09, 3.7603E-09, 3.7603E-09, 1.04941E-09
DataValue, 3, -1.0667100000000001E-09, 3.8322E-09, 3.8322E-09, 1.0667100000000001E-09
DataValue, 3.2, -1.0829E-09, 3.9107E-09, 3.9107E-09, 1.0829E-09
DataValue, 3.4, -1.10057E-09, 3.9937E-09, 3.9937E-09, 1.10057E-09
DataValue, 3.6, -1.1182300000000002E-09, 4.0764E-09, 4.0764E-09, 1.1182300000000002E-09
DataValue, 3.8000000000000003, -1.13572E-09, 4.128E-09, 4.128E-09, 1.13572E-09
DataValue, 4, -1.1536E-09, 4.2688E-09, 4.2688E-09, 1.1536E-09
DataValue, 4.2, -1.1736E-09, 4.3508E-09, 4.3508E-09, 1.1736E-09
DataValue, 4.4, -1.1924E-09, 4.3988E-09, 4.3988E-09, 1.1924E-09
DataValue, 4.6000000000000005, -1.2106E-09, 4.4903E-09, 4.4903E-09, 1.2106E-09
DataValue, 4.8, -1.2308E-09, 4.5457E-09, 4.5457E-09, 1.2308E-09
DataValue, 5, -1.2519E-09, 4.6083E-09, 4.6083E-09, 1.2519E-09
DataValue, 0, -8.3968E-10, 4.4413000000000005E-10, 4.4413000000000005E-10, 8.3968E-10
DataValue, 0.2, -8.5354E-10, 4.3344E-09, 4.3344E-09, 8.5354E-10
DataValue, 0.4, -8.639500000000001E-10, 6.2544E-09, 6.2544E-09, 8.639500000000001E-10
DataValue, 0.6, -8.7691E-10, 7.1966E-09, 7.1966E-09, 8.7691E-10
DataValue, 0.8, -8.9115000000000007E-10, 7.722E-09, 7.722E-09, 8.9115000000000007E-10
DataValue, 1, -9.040500000000001E-10, 8.0141E-09, 8.0141E-09, 9.040500000000001E-10
DataValue, 1.2, -9.1762000000000008E-10, 8.2371E-09, 8.2371E-09, 9.1762000000000008E-10
DataValue, 1.4000000000000001, -9.3135E-10, 8.3687E-09, 8.3687E-09, 9.3135E-10
DataValue, 1.6, -9.4456E-10, 8.4953E-09, 8.4953E-09, 9.4456E-10
DataValue, 1.8, -9.5908000000000017E-10, 8.6024E-09, 8.6024E-09, 9.5908000000000017E-10
DataValue, 2, -9.7377E-10, 8.6953E-09, 8.6953E-09, 9.7377E-10
DataValue, 2.2, -9.8942E-10, 8.8204E-09, 8.8204E-09, 9.8942E-10
DataValue, 2.4, -1.00468E-09, 8.8909E-09, 8.8909E-09, 1.00468E-09
DataValue, 2.6, -1.01972E-09, 8.9877E-09, 8.9877E-09, 1.01972E-09
DataValue, 2.8000000000000003, -1.03638E-09, 9.0626E-09, 9.0626E-09, 1.03638E-09
DataValue, 3, -1.0517900000000002E-09, 9.1624E-09, 9.1624E-09, 1.0517900000000002E-09
DataValue, 3.2, -1.06831E-09, 9.2412E-09, 9.2412E-09, 1.06831E-09
DataValue, 3.4, -1.0853000000000002E-09, 9.3346E-09, 9.3346E-09, 1.0853000000000002E-09
DataValue, 3.6, -1.1023400000000002E-09, 9.393E-09, 9.393E-09, 1.1023400000000002E-09
DataValue, 3.8000000000000003, -1.1196000000000002E-09, 9.4856E-09, 9.4856E-09, 1.1196000000000002E-09
DataValue, 4, -1.13861E-09, 9.5398E-09, 9.5398E-09, 1.13861E-09
DataValue, 4.2, -1.1551E-09, 9.6722E-09, 9.6722E-09, 1.1551E-09
DataValue, 4.4, -1.1737E-09, 9.717E-09, 9.717E-09, 1.1737E-09
DataValue, 4.6000000000000005, -1.1925E-09, 9.7959E-09, 9.7959E-09, 1.1925E-09
DataValue, 4.8, -1.2112E-09, 9.8746E-09, 9.8746E-09, 1.2112E-09
DataValue, 5, -1.2312E-09, 9.9423E-09, 9.9423E-09, 1.2312E-09
DataValue, 0, -8.2353E-10, 4.3363000000000003E-10, 4.3363000000000003E-10, 8.2353E-10
DataValue, 0.2, -8.3492E-10, 8.3088E-09, 8.3088E-09, 8.3492E-10
DataValue, 0.4, -8.4638E-10, 1.2592799999999998E-08, 1.2592799999999998E-08, 8.4638E-10
DataValue, 0.6, -8.6015000000000007E-10, 1.4642799999999998E-08, 1.4642799999999998E-08, 8.6015000000000007E-10
DataValue, 0.8, -8.7257E-10, 1.5750399999999997E-08, 1.5750399999999997E-08, 8.7257E-10
DataValue, 1, -8.8494E-10, 1.6354399999999997E-08, 1.6354399999999997E-08, 8.8494E-10
DataValue, 1.2, -8.9963E-10, 1.6709599999999997E-08, 1.6709599999999997E-08, 8.9963E-10
DataValue, 1.4000000000000001, -9.122100000000001E-10, 1.6964599999999998E-08, 1.6964599999999998E-08, 9.122100000000001E-10
DataValue, 1.6, -9.2478000000000009E-10, 1.7107399999999997E-08, 1.7107399999999997E-08, 9.2478000000000009E-10
DataValue, 1.8, -9.3949E-10, 1.7272799999999998E-08, 1.7272799999999998E-08, 9.3949E-10
DataValue, 2, -9.5357E-10, 1.73878E-08, 1.73878E-08, 9.5357E-10
DataValue, 2.2, -9.6687E-10, 1.7496799999999997E-08, 1.7496799999999997E-08, 9.6687E-10
DataValue, 2.4, -9.8222000000000015E-10, 1.7560799999999997E-08, 1.7560799999999997E-08, 9.8222000000000015E-10
DataValue, 2.6, -9.9637000000000015E-10, 1.7700199999999997E-08, 1.7700199999999997E-08, 9.9637000000000015E-10
DataValue, 2.8000000000000003, -1.01179E-09, 1.7749399999999997E-08, 1.7749399999999997E-08, 1.01179E-09
DataValue, 3, -1.0267400000000001E-09, 1.7823799999999997E-08, 1.7823799999999997E-08, 1.0267400000000001E-09
DataValue, 3.2, -1.04219E-09, 1.79038E-08, 1.79038E-08, 1.04219E-09
DataValue, 3.4, -1.05693E-09, 1.7957199999999998E-08, 1.7957199999999998E-08, 1.05693E-09
DataValue, 3.6, -1.07284E-09, 1.80656E-08, 1.80656E-08, 1.07284E-09
DataValue, 3.8000000000000003, -1.0897E-09, 1.81512E-08, 1.81512E-08, 1.0897E-09
DataValue, 4, -1.10734E-09, 1.8173999999999998E-08, 1.8173999999999998E-08, 1.10734E-09
DataValue, 4.2, -1.12386E-09, 1.82586E-08, 1.82586E-08, 1.12386E-09
DataValue, 4.4, -1.1417100000000002E-09, 1.8336999999999997E-08, 1.8336999999999997E-08, 1.1417100000000002E-09
DataValue, 4.6000000000000005, -1.1634E-09, 1.84798E-08, 1.84798E-08, 1.1634E-09
DataValue, 4.8, -1.1781E-09, 1.8525E-08, 1.8525E-08, 1.1781E-09
DataValue, 5, -1.1968E-09, 1.85862E-08, 1.85862E-08, 1.1968E-09
DataValue, 0, -8.0116000000000005E-10, 4.2319E-10, 4.2319E-10, 8.0116000000000005E-10
DataValue, 0.2, -8.1316E-10, 1.38774E-08, 1.38774E-08, 8.1316E-10
DataValue, 0.4, -8.2782E-10, 2.1462599999999997E-08, 2.1462599999999997E-08, 8.2782E-10
DataValue, 0.6, -8.3958000000000011E-10, 2.5686E-08, 2.5686E-08, 8.3958000000000011E-10
DataValue, 0.8, -8.5131E-10, 2.7995599999999996E-08, 2.7995599999999996E-08, 8.5131E-10
DataValue, 1, -8.6379000000000007E-10, 2.9309799999999998E-08, 2.9309799999999998E-08, 8.6379000000000007E-10
DataValue, 1.2, -8.7638E-10, 3.01832E-08, 3.01832E-08, 8.7638E-10
DataValue, 1.4000000000000001, -8.8925000000000011E-10, 3.06502E-08, 3.06502E-08, 8.8925000000000011E-10
DataValue, 1.6, -9.018E-10, 3.098E-08, 3.098E-08, 9.018E-10
DataValue, 1.8, -9.1595E-10, 3.1202799999999994E-08, 3.1202799999999994E-08, 9.1595E-10
DataValue, 2, -9.3007000000000008E-10, 3.13926E-08, 3.13926E-08, 9.3007000000000008E-10
DataValue, 2.2, -9.433E-10, 3.1590399999999995E-08, 3.1590399999999995E-08, 9.433E-10
DataValue, 2.4, -9.575300000000001E-10, 3.17024E-08, 3.17024E-08, 9.575300000000001E-10
DataValue, 2.6, -9.720900000000001E-10, 3.1865999999999996E-08, 3.1865999999999996E-08, 9.720900000000001E-10
DataValue, 2.8000000000000003, -9.8714000000000017E-10, 3.2101799999999994E-08, 3.2101799999999994E-08, 9.8714000000000017E-10
DataValue, 3, -1.0018700000000002E-09, 3.2167799999999996E-08, 3.2167799999999996E-08, 1.0018700000000002E-09
DataValue, 3.2, -1.01738E-09, 3.2377799999999996E-08, 3.2377799999999996E-08, 1.01738E-09
DataValue, 3.4, -1.03288E-09, 3.2418999999999994E-08, 3.2418999999999994E-08, 1.03288E-09
DataValue, 3.6, -1.0486E-09, 3.2473599999999995E-08, 3.2473599999999995E-08, 1.0486E-09
DataValue, 3.8000000000000003, -1.06465E-09, 3.2579199999999994E-08, 3.2579199999999994E-08, 1.06465E-09
DataValue, 4, -1.08133E-09, 3.2552E-08, 3.2552E-08, 1.08133E-09
DataValue, 4.2, -1.09794E-09, 3.2688599999999994E-08, 3.2688599999999994E-08, 1.09794E-09
DataValue, 4.4, -1.11363E-09, 3.27576E-08, 3.27576E-08, 1.11363E-09
DataValue, 4.6000000000000005, -1.1320900000000002E-09, 3.28972E-08, 3.28972E-08, 1.1320900000000002E-09
DataValue, 4.8, -1.14946E-09, 3.2997599999999994E-08, 3.2997599999999994E-08, 1.14946E-09
DataValue, 5, -1.17E-09, 3.31666E-08, 3.31666E-08, 1.17E-09
DataValue, 0, -7.7826000000000006E-10, 4.1386000000000006E-10, 4.1386000000000006E-10, 7.7826000000000006E-10
DataValue, 0.2, -7.9063000000000009E-10, 2.1664599999999997E-08, 2.1664599999999997E-08, 7.9063000000000009E-10
DataValue, 0.4, -8.0438000000000007E-10, 3.4621199999999994E-08, 3.4621199999999994E-08, 8.0438000000000007E-10
DataValue, 0.6, -8.1610000000000011E-10, 4.23884E-08, 4.23884E-08, 8.1610000000000011E-10
DataValue, 0.8, -8.2797000000000009E-10, 4.6788599999999995E-08, 4.6788599999999995E-08, 8.2797000000000009E-10
DataValue, 1, -8.4003E-10, 4.9294399999999993E-08, 4.9294399999999993E-08, 8.4003E-10
DataValue, 1.2, -8.5291000000000011E-10, 5.0881799999999994E-08, 5.0881799999999994E-08, 8.5291000000000011E-10
DataValue, 1.4000000000000001, -8.6563E-10, 5.18626E-08, 5.18626E-08, 8.6563E-10
DataValue, 1.6, -8.7880000000000011E-10, 5.2503199999999995E-08, 5.2503199999999995E-08, 8.7880000000000011E-10
DataValue, 1.8, -8.9150000000000008E-10, 5.2883E-08, 5.2883E-08, 8.9150000000000008E-10
DataValue, 2, -9.0542000000000006E-10, 5.3347999999999996E-08, 5.3347999999999996E-08, 9.0542000000000006E-10
DataValue, 2.2, -9.1866000000000011E-10, 5.3623199999999994E-08, 5.3623199999999994E-08, 9.1866000000000011E-10
DataValue, 2.4, -9.3225000000000017E-10, 5.3858399999999993E-08, 5.3858399999999993E-08, 9.3225000000000017E-10
DataValue, 2.6, -9.4668E-10, 5.4097E-08, 5.4097E-08, 9.4668E-10
DataValue, 2.8000000000000003, -9.6142E-10, 5.4438999999999995E-08, 5.4438999999999995E-08, 9.6142E-10
DataValue, 3, -9.7625E-10, 5.4576799999999995E-08, 5.4576799999999995E-08, 9.7625E-10
DataValue, 3.2, -9.9123E-10, 5.4704799999999995E-08, 5.4704799999999995E-08, 9.9123E-10
DataValue, 3.4, -1.0058700000000002E-09, 5.4835999999999996E-08, 5.4835999999999996E-08, 1.0058700000000002E-09
DataValue, 3.6, -1.02232E-09, 5.4947199999999993E-08, 5.4947199999999993E-08, 1.02232E-09
DataValue, 3.8000000000000003, -1.0384300000000001E-09, 5.51284E-08, 5.51284E-08, 1.0384300000000001E-09
DataValue, 4, -1.05361E-09, 5.5145999999999996E-08, 5.5145999999999996E-08, 1.05361E-09
DataValue, 4.2, -1.0701100000000001E-09, 5.5200199999999996E-08, 5.5200199999999996E-08, 1.0701100000000001E-09
DataValue, 4.4, -1.08676E-09, 5.5328199999999995E-08, 5.5328199999999995E-08, 1.08676E-09
DataValue, 4.6000000000000005, -1.1027700000000001E-09, 5.5422199999999996E-08, 5.5422199999999996E-08, 1.1027700000000001E-09
DataValue, 4.8, -1.12012E-09, 5.5543599999999996E-08, 5.5543599999999996E-08, 1.12012E-09
DataValue, 5, -1.1379200000000001E-09, 5.5612999999999996E-08, 5.5612999999999996E-08, 1.1379200000000001E-09
DataValue, 0, -7.5309E-10, 4.0471000000000004E-10, 4.0471000000000004E-10, 7.5309E-10
DataValue, 0.2, -7.6502E-10, 3.16942E-08, 3.16942E-08, 7.6502E-10
DataValue, 0.4, -7.7857E-10, 5.2203599999999994E-08, 5.2203599999999994E-08, 7.7857E-10
DataValue, 0.6, -7.9041000000000007E-10, 6.53546E-08, 6.53546E-08, 7.9041000000000007E-10
DataValue, 0.8, -8.022500000000001E-10, 7.3465999999999991E-08, 7.3465999999999991E-08, 8.022500000000001E-10
DataValue, 1, -8.1425000000000006E-10, 7.80856E-08, 7.80856E-08, 8.1425000000000006E-10
DataValue, 1.2, -8.2739000000000008E-10, 8.1157999999999991E-08, 8.1157999999999991E-08, 8.2739000000000008E-10
DataValue, 1.4000000000000001, -8.3937000000000007E-10, 8.3051599999999986E-08, 8.3051599999999986E-08, 8.3937000000000007E-10
DataValue, 1.6, -8.5196E-10, 8.4195199999999991E-08, 8.4195199999999991E-08, 8.5196E-10
DataValue, 1.8, -8.6416E-10, 8.4970599999999992E-08, 8.4970599999999992E-08, 8.6416E-10
DataValue, 2, -8.7826E-10, 8.5652399999999987E-08, 8.5652399999999987E-08, 8.7826E-10
DataValue, 2.2, -8.9134E-10, 8.6192599999999988E-08, 8.6192599999999988E-08, 8.9134E-10
DataValue, 2.4, -9.054600000000001E-10, 8.666159999999999E-08, 8.666159999999999E-08, 9.054600000000001E-10
DataValue, 2.6, -9.1927000000000007E-10, 8.69202E-08, 8.69202E-08, 9.1927000000000007E-10
DataValue, 2.8000000000000003, -9.3412E-10, 8.7256399999999992E-08, 8.7256399999999992E-08, 9.3412E-10
DataValue, 3, -9.4871000000000013E-10, 8.7600199999999988E-08, 8.7600199999999988E-08, 9.4871000000000013E-10
DataValue, 3.2, -9.6344000000000014E-10, 8.78708E-08, 8.78708E-08, 9.6344000000000014E-10
DataValue, 3.4, -9.7799E-10, 8.80896E-08, 8.80896E-08, 9.7799E-10
DataValue, 3.6, -9.9289E-10, 8.83202E-08, 8.83202E-08, 9.9289E-10
DataValue, 3.8000000000000003, -1.0087E-09, 8.8392199999999986E-08, 8.8392199999999986E-08, 1.0087E-09
DataValue, 4, -1.0233200000000001E-09, 8.8570999999999993E-08, 8.8570999999999993E-08, 1.0233200000000001E-09
DataValue, 4.2, -1.03989E-09, 8.87524E-08, 8.87524E-08, 1.03989E-09
DataValue, 4.4, -1.05686E-09, 8.8945E-08, 8.8945E-08, 1.05686E-09
