
SetupTitle, I/V Sweep
PrimitiveTest, I/V Sweep
TestParameter, Context.MainFrame, B1500A
TestParameter, Channel.UnitType, SMU, SMU, SMU
TestParameter, Channel.Unit, SMU2:HR, SMU3:HR, SMU4:HR
TestParameter, Channel.IName, IG, ID, IS
TestParameter, Channel.VName, VG, VD, VS
TestParameter, Channel.Mode, V, V, V
TestParameter, Channel.Func, VAR1, VAR2, CONST
TestParameter, Channel.Index, 
TestParameter, Channel.Time, 
TestParameter, Measurement.Port.Unit, SMU2:HR, SMU3:HR, SMU4:HR
TestParameter, Measurement.Port.SeriesResistor, NONE, NONE, NONE
TestParameter, Measurement.Port.Filter, ON, ON, ON
TestParameter, Measurement.Port.OutputVoltageComparison, 0, 0, 0
TestParameter, Measurement.Primary.Locus, Single
TestParameter, Measurement.Primary.Scale, LINEAR
TestParameter, Measurement.Primary.Start, -14
TestParameter, Measurement.Primary.Stop, -4
TestParameter, Measurement.Primary.Step, 0.2
TestParameter, Measurement.Primary.Compliance, 0.1
TestParameter, Measurement.Primary.PowerCompliance, 0
TestParameter, Measurement.Aborting.Condition, CONTINUE AT ANY
TestParameter, Measurement.PostOutput.Value, START
TestParameter, Measurement.PostOutput.Retention, OFF
TestParameter, Measurement.Secondary.Start, 0
TestParameter, Measurement.Secondary.Count, 26
TestParameter, Measurement.Secondary.Step, 0.2
TestParameter, Measurement.Secondary.Compliance, 0.0001
TestParameter, Measurement.Secondary.PowerCompliance, 0
TestParameter, Measurement.Bias.Source, -14, 0, 0
TestParameter, Measurement.Bias.Compliance, 0.1, 0.0001, 0.1
TestParameter, Measurement.Monitor.Unit, SMU2:HR, SMU3:HR, SMU4:HR
TestParameter, Measurement.Monitor.Adc, HR ADC, HR ADC, HR ADC
TestParameter, Measurement.Monitor.Measurement, Compliance Side, Compliance Side, Compliance Side
TestParameter, Measurement.Monitor.RangingMode, LIMITED, LIMITED, LIMITED
TestParameter, Measurement.Monitor.RangeBoundary, 1nA, 1nA, 1nA
TestParameter, Measurement.Monitor.RangeRating, BY FULL RANGE, BY FULL RANGE, BY FULL RANGE
TestParameter, Measurement.Monitor.RangeRatingCoeff, 50, 50, 50
TestParameter, Measurement.Timing.Hold, 0
TestParameter, Measurement.Timing.Delay, 0
TestParameter, Measurement.Adc.HighSpeed.Mode, AUTO
TestParameter, Measurement.Adc.HighSpeed.Coeff, 1
TestParameter, Measurement.Adc.HighResolution.AutoZero, OFF
TestParameter, Measurement.Adc.HighResolution.Mode, AUTO
TestParameter, Measurement.Adc.HighResolution.Coeff, 6
TestParameter, Measurement.WaitTime.Source.Coeff, 1
TestParameter, Measurement.WaitTime.Source.Offset, 0
TestParameter, Measurement.WaitTime.Monitor.Coeff, 1
TestParameter, Measurement.WaitTime.Monitor.Offset, 0
TestParameter, Function.User.Name, absId, absIg
TestParameter, Function.User.Unit, , 
TestParameter, Function.User.Definition, abs(ID), abs(IG)
TestParameter, Output.Graph.Enabled, true
TestParameter, Output.Graph.AutoScaling, false
TestParameter, Output.Graph.XAxis.Data, VG
TestParameter, Output.Graph.XAxis.Scale, Linear
TestParameter, Output.Graph.XAxis.Left, -14
TestParameter, Output.Graph.XAxis.Right, -4
TestParameter, Output.Graph.XAxis.RunTimeAutoScale, true
TestParameter, Output.Graph.YAxis.Data, ID, IG
TestParameter, Output.Graph.YAxis.Scale, Linear, Linear
TestParameter, Output.Graph.YAxis.Bottom, 0.001, 0.001
TestParameter, Output.Graph.YAxis.Top, 0.01, 0.01
TestParameter, Output.Graph.YAxis.Group, Group 1, Group 1
TestParameter, Output.Graph.YAxis.RunTimeAutoScale, true, true
TestParameter, AutoAnalysis.Interpolation, false
TestParameter, AutoAnalysis.Line1.Enabled, false
TestParameter, AutoAnalysis.Line1.Type, 2
TestParameter, AutoAnalysis.Line1.Fix, False
TestParameter, AutoAnalysis.Line1.YAxis, 0
TestParameter, AutoAnalysis.Line1.Point1.Type, 0
TestParameter, AutoAnalysis.Line1.Point1.XY.X, VG
TestParameter, AutoAnalysis.Line1.Point1.XY.Y, ID
TestParameter, AutoAnalysis.Line1.Point1.Data.Var, 
TestParameter, AutoAnalysis.Line1.Point1.Data.Condition, 
TestParameter, AutoAnalysis.Line1.Point1.Data.Start, false
TestParameter, AutoAnalysis.Line1.Point1.Data.StartVar, 
TestParameter, AutoAnalysis.Line1.Point1.Data.StartCondition, 
TestParameter, AutoAnalysis.Line1.Point2.Type, 0
TestParameter, AutoAnalysis.Line1.Point2.XY.X, 
TestParameter, AutoAnalysis.Line1.Point2.XY.Y, 
TestParameter, AutoAnalysis.Line1.Point2.Data.Var, 
TestParameter, AutoAnalysis.Line1.Point2.Data.Condition, 
TestParameter, AutoAnalysis.Line1.Point2.Data.Start, false
TestParameter, AutoAnalysis.Line1.Point2.Data.StartVar, 
TestParameter, AutoAnalysis.Line1.Point2.Data.StartCondition, 
TestParameter, AutoAnalysis.Line1.GradientExpr, 0
TestParameter, AutoAnalysis.Line2.Enabled, false
TestParameter, AutoAnalysis.Line2.Type, 1
TestParameter, AutoAnalysis.Line2.Fix, True
TestParameter, AutoAnalysis.Line2.YAxis, 0
TestParameter, AutoAnalysis.Line2.Point1.Type, 0
TestParameter, AutoAnalysis.Line2.Point1.XY.X, 
TestParameter, AutoAnalysis.Line2.Point1.XY.Y, 
TestParameter, AutoAnalysis.Line2.Point1.Data.Var, 
TestParameter, AutoAnalysis.Line2.Point1.Data.Condition, 
TestParameter, AutoAnalysis.Line2.Point1.Data.Start, false
TestParameter, AutoAnalysis.Line2.Point1.Data.StartVar, 
TestParameter, AutoAnalysis.Line2.Point1.Data.StartCondition, 
TestParameter, AutoAnalysis.Line2.Point2.Type, 0
TestParameter, AutoAnalysis.Line2.Point2.XY.X, 
TestParameter, AutoAnalysis.Line2.Point2.XY.Y, 
TestParameter, AutoAnalysis.Line2.Point2.Data.Var, 
TestParameter, AutoAnalysis.Line2.Point2.Data.Condition, 
TestParameter, AutoAnalysis.Line2.Point2.Data.Start, false
TestParameter, AutoAnalysis.Line2.Point2.Data.StartVar, 
TestParameter, AutoAnalysis.Line2.Point2.Data.StartCondition, 
TestParameter, AutoAnalysis.Line2.GradientExpr, 0
TestParameter, AutoAnalysis.Marker.Enabled, false
TestParameter, AutoAnalysis.Marker.Data.Var, 
TestParameter, AutoAnalysis.Marker.Data.Condition, 
TestParameter, AutoAnalysis.Marker.Data.Start, false
TestParameter, AutoAnalysis.Marker.Data.StartVar, 
TestParameter, AutoAnalysis.Marker.Data.StartCondition, 
MetaData, TestRecord.EntryPoint, true
MetaData, TestRecord.RecordTime, 04/11/2022 13:43:03
MetaData, TestRecord.TestTarget, 
MetaData, TestRecord.IterationIndex, 62
MetaData, TestRecord.Preservation, true
MetaData, TestRecord.Flag, 
MetaData, TestRecord.Remarks, 
MetaData, TestRecord.LinkKey, 8ade8bc2-3569-4ab8-a0ba-ff6ef3d3e326
Dimension1, 51, 51, 51, 51, 51
Dimension2, 26, 26, 26, 26, 26
DataName, VG, IG, ID, absId, absIg
DataValue, -14, -9.2500000000000011E-10, 4.5100000000000005E-10, 4.5100000000000005E-10, 9.2500000000000011E-10
DataValue, -13.8, -8.9424000000000011E-10, 4.3737E-10, 4.3737E-10, 8.9424000000000011E-10
DataValue, -13.6, -8.6917000000000011E-10, 4.253E-10, 4.253E-10, 8.6917000000000011E-10
DataValue, -13.4, -8.444600000000001E-10, 4.1190000000000005E-10, 4.1190000000000005E-10, 8.444600000000001E-10
DataValue, -13.200000000000001, -8.1961E-10, 3.9959E-10, 3.9959E-10, 8.1961E-10
DataValue, -13, -7.9588E-10, 3.8687000000000003E-10, 3.8687000000000003E-10, 7.9588E-10
DataValue, -12.8, -7.7350000000000007E-10, 3.7496E-10, 3.7496E-10, 7.7350000000000007E-10
DataValue, -12.6, -7.5119000000000007E-10, 3.639E-10, 3.639E-10, 7.5119000000000007E-10
DataValue, -12.4, -7.2946000000000008E-10, 3.5092E-10, 3.5092E-10, 7.2946000000000008E-10
DataValue, -12.200000000000001, -7.0821000000000008E-10, 3.4047E-10, 3.4047E-10, 7.0821000000000008E-10
DataValue, -12, -6.8657E-10, 3.2640000000000003E-10, 3.2640000000000003E-10, 6.8657E-10
DataValue, -11.8, -6.659900000000001E-10, 3.1826000000000005E-10, 3.1826000000000005E-10, 6.659900000000001E-10
DataValue, -11.6, -6.4589E-10, 3.0477E-10, 3.0477E-10, 6.4589E-10
DataValue, -11.4, -6.2615000000000006E-10, 2.9481000000000004E-10, 2.9481000000000004E-10, 6.2615000000000006E-10
DataValue, -11.200000000000001, -6.0616E-10, 2.8650000000000004E-10, 2.8650000000000004E-10, 6.0616E-10
DataValue, -11, -5.8664000000000005E-10, 2.7436E-10, 2.7436E-10, 5.8664000000000005E-10
DataValue, -10.8, -5.6845E-10, 2.6195E-10, 2.6195E-10, 5.6845E-10
DataValue, -10.6, -5.5006000000000006E-10, 2.5338E-10, 2.5338E-10, 5.5006000000000006E-10
DataValue, -10.4, -5.3234E-10, 2.4418000000000003E-10, 2.4418000000000003E-10, 5.3234E-10
DataValue, -10.200000000000001, -5.1448000000000007E-10, 2.3059000000000003E-10, 2.3059000000000003E-10, 5.1448000000000007E-10
DataValue, -10, -4.9716000000000007E-10, 2.1931000000000002E-10, 2.1931000000000002E-10, 4.9716000000000007E-10
DataValue, -9.8, -4.8018E-10, 2.1891000000000002E-10, 2.1891000000000002E-10, 4.8018E-10
DataValue, -9.6, -4.6435000000000006E-10, 2.0541000000000002E-10, 2.0541000000000002E-10, 4.6435000000000006E-10
DataValue, -9.4, -4.4801000000000004E-10, 1.9781E-10, 1.9781E-10, 4.4801000000000004E-10
DataValue, -9.2000000000000011, -4.3261E-10, 1.9202000000000003E-10, 1.9202000000000003E-10, 4.3261E-10
DataValue, -9, -4.1725000000000003E-10, 1.8613E-10, 1.8613E-10, 4.1725000000000003E-10
DataValue, -8.8, -4.0206000000000006E-10, 1.7434000000000002E-10, 1.7434000000000002E-10, 4.0206000000000006E-10
DataValue, -8.6, -3.8694E-10, 1.6689E-10, 1.6689E-10, 3.8694E-10
DataValue, -8.4, -3.7279E-10, 1.559E-10, 1.559E-10, 3.7279E-10
DataValue, -8.2, -3.5864E-10, 1.5635E-10, 1.5635E-10, 3.5864E-10
DataValue, -8, -3.4460000000000003E-10, 1.4742000000000002E-10, 1.4742000000000002E-10, 3.4460000000000003E-10
DataValue, -7.8, -3.3114E-10, 1.4052000000000002E-10, 1.4052000000000002E-10, 3.3114E-10
DataValue, -7.6000000000000005, -3.1794000000000004E-10, 1.309E-10, 1.309E-10, 3.1794000000000004E-10
DataValue, -7.4, -3.0479000000000004E-10, 1.2591E-10, 1.2591E-10, 3.0479000000000004E-10
DataValue, -7.2, -2.9229000000000003E-10, 1.1684E-10, 1.1684E-10, 2.9229000000000003E-10
DataValue, -7, -2.802E-10, 1.0997000000000001E-10, 1.0997000000000001E-10, 2.802E-10
DataValue, -6.8, -2.6822000000000003E-10, 1.1141E-10, 1.1141E-10, 2.6822000000000003E-10
DataValue, -6.6000000000000005, -2.5644E-10, 9.3750000000000012E-11, 9.3750000000000012E-11, 2.5644E-10
DataValue, -6.4, -2.4465000000000003E-10, 9.032E-11, 9.032E-11, 2.4465000000000003E-10
DataValue, -6.2, -2.3376000000000003E-10, 9.054E-11, 9.054E-11, 2.3376000000000003E-10
DataValue, -6, -2.2269E-10, 8.2970000000000012E-11, 8.2970000000000012E-11, 2.2269E-10
DataValue, -5.8, -2.1202E-10, 7.414E-11, 7.414E-11, 2.1202E-10
DataValue, -5.6000000000000005, -2.0199000000000002E-10, 7.3080000000000008E-11, 7.3080000000000008E-11, 2.0199000000000002E-10
DataValue, -5.4, -1.9137E-10, 6.9660000000000008E-11, 6.9660000000000008E-11, 1.9137E-10
DataValue, -5.2, -1.8161E-10, 6.9630000000000009E-11, 6.9630000000000009E-11, 1.8161E-10
DataValue, -5, -1.7229E-10, 5.6310000000000004E-11, 5.6310000000000004E-11, 1.7229E-10
DataValue, -4.8, -1.6254000000000002E-10, 6.568E-11, 6.568E-11, 1.6254000000000002E-10
DataValue, -4.6000000000000005, -1.5357000000000002E-10, 4.7970000000000003E-11, 4.7970000000000003E-11, 1.5357000000000002E-10
DataValue, -4.4, -1.4462000000000001E-10, 4.7440000000000006E-11, 4.7440000000000006E-11, 1.4462000000000001E-10
DataValue, -4.2, -1.3574000000000001E-10, 4.5680000000000004E-11, 4.5680000000000004E-11, 1.3574000000000001E-10
DataValue, -4, -1.2724000000000002E-10, 4.5030000000000005E-11, 4.5030000000000005E-11, 1.2724000000000002E-10
DataValue, -14, -9.0598000000000011E-10, 6.921E-10, 6.921E-10, 9.0598000000000011E-10
DataValue, -13.8, -8.7791E-10, 1.1001000000000002E-09, 1.1001000000000002E-09, 8.7791E-10
DataValue, -13.6, -8.5477E-10, 1.9086E-09, 1.9086E-09, 8.5477E-10
DataValue, -13.4, -8.3067000000000009E-10, 3.501E-09, 3.501E-09, 8.3067000000000009E-10
DataValue, -13.200000000000001, -8.0688000000000011E-10, 6.1376E-09, 6.1376E-09, 8.0688000000000011E-10
DataValue, -13, -7.8360000000000007E-10, 1.03156E-08, 1.03156E-08, 7.8360000000000007E-10
DataValue, -12.8, -7.6146000000000008E-10, 1.6254799999999998E-08, 1.6254799999999998E-08, 7.6146000000000008E-10
DataValue, -12.6, -7.3931000000000011E-10, 2.4783399999999996E-08, 2.4783399999999996E-08, 7.3931000000000011E-10
DataValue, -12.4, -7.1828E-10, 3.58654E-08, 3.58654E-08, 7.1828E-10
DataValue, -12.200000000000001, -6.968E-10, 4.9795799999999994E-08, 4.9795799999999994E-08, 6.968E-10
DataValue, -12, -6.7677E-10, 6.6561E-08, 6.6561E-08, 6.7677E-10
DataValue, -11.8, -6.5663E-10, 8.6725399999999986E-08, 8.6725399999999986E-08, 6.5663E-10
DataValue, -11.6, -6.3673E-10, 1.0862099999999999E-07, 1.0862099999999999E-07, 6.3673E-10
DataValue, -11.4, -6.1695E-10, 1.3252E-07, 1.3252E-07, 6.1695E-10
DataValue, -11.200000000000001, -5.9742000000000009E-10, 1.5672E-07, 1.5672E-07, 5.9742000000000009E-10
DataValue, -11, -5.7906000000000007E-10, 1.8182E-07, 1.8182E-07, 5.7906000000000007E-10
DataValue, -10.8, -5.6076E-10, 2.067E-07, 2.067E-07, 5.6076E-10
DataValue, -10.6, -5.4253000000000009E-10, 2.317E-07, 2.317E-07, 5.4253000000000009E-10
DataValue, -10.4, -5.2516000000000008E-10, 2.5444E-07, 2.5444E-07, 5.2516000000000008E-10
DataValue, -10.200000000000001, -5.0764E-10, 2.7548E-07, 2.7548E-07, 5.0764E-10
DataValue, -10, -4.9103E-10, 2.986E-07, 2.986E-07, 4.9103E-10
DataValue, -9.8, -4.743E-10, 3.1772E-07, 3.1772E-07, 4.743E-10
DataValue, -9.6, -4.5820000000000003E-10, 3.3272E-07, 3.3272E-07, 4.5820000000000003E-10
DataValue, -9.4, -4.4237000000000005E-10, 3.5346E-07, 3.5346E-07, 4.4237000000000005E-10
DataValue, -9.2000000000000011, -4.2660000000000006E-10, 3.6842E-07, 3.6842E-07, 4.2660000000000006E-10
DataValue, -9, -4.113E-10, 3.8002E-07, 3.8002E-07, 4.113E-10
DataValue, -8.8, -3.9685000000000003E-10, 4.0334E-07, 4.0334E-07, 3.9685000000000003E-10
DataValue, -8.6, -3.8182000000000003E-10, 4.0836E-07, 4.0836E-07, 3.8182000000000003E-10
DataValue, -8.4, -3.6771E-10, 4.1672E-07, 4.1672E-07, 3.6771E-10
DataValue, -8.2, -3.5456E-10, 4.2896E-07, 4.2896E-07, 3.5456E-10
DataValue, -8, -3.4081000000000004E-10, 4.43E-07, 4.43E-07, 3.4081000000000004E-10
DataValue, -7.8, -3.2781000000000003E-10, 4.4489999999999997E-07, 4.4489999999999997E-07, 3.2781000000000003E-10
DataValue, -7.6000000000000005, -3.1513000000000003E-10, 4.4806E-07, 4.4806E-07, 3.1513000000000003E-10
DataValue, -7.4, -3.0213E-10, 4.7141999999999997E-07, 4.7141999999999997E-07, 3.0213E-10
DataValue, -7.2, -2.9020000000000004E-10, 4.6982E-07, 4.6982E-07, 2.9020000000000004E-10
DataValue, -7, -2.7768E-10, 4.785E-07, 4.785E-07, 2.7768E-10
DataValue, -6.8, -2.6561000000000003E-10, 4.5808E-07, 4.5808E-07, 2.6561000000000003E-10
DataValue, -6.6000000000000005, -2.5427000000000004E-10, 4.6036E-07, 4.6036E-07, 2.5427000000000004E-10
DataValue, -6.4, -2.4326E-10, 4.6562E-07, 4.6562E-07, 2.4326E-10
DataValue, -6.2, -2.3180000000000002E-10, 4.6861999999999997E-07, 4.6861999999999997E-07, 2.3180000000000002E-10
DataValue, -6, -2.2116000000000002E-10, 5.041E-07, 5.041E-07, 2.2116000000000002E-10
DataValue, -5.8, -2.1069000000000002E-10, 5.0862E-07, 5.0862E-07, 2.1069000000000002E-10
DataValue, -5.6000000000000005, -2.0044E-10, 5.0734E-07, 5.0734E-07, 2.0044E-10
DataValue, -5.4, -1.9038000000000002E-10, 5.1436E-07, 5.1436E-07, 1.9038000000000002E-10
DataValue, -5.2, -1.8037000000000002E-10, 5.1502E-07, 5.1502E-07, 1.8037000000000002E-10
DataValue, -5, -1.7134000000000003E-10, 5.1994E-07, 5.1994E-07, 1.7134000000000003E-10
DataValue, -4.8, -1.6228E-10, 4.9188E-07, 4.9188E-07, 1.6228E-10
DataValue, -4.6000000000000005, -1.5337E-10, 5.2924E-07, 5.2924E-07, 1.5337E-10
DataValue, -4.4, -1.4403000000000002E-10, 5.322E-07, 5.322E-07, 1.4403000000000002E-10
DataValue, -4.2, -1.3571000000000002E-10, 5.2996E-07, 5.2996E-07, 1.3571000000000002E-10
DataValue, -4, -1.2689000000000001E-10, 5.0544E-07, 5.0544E-07, 1.2689000000000001E-10
DataValue, -14, -9.0470000000000009E-10, 8.7616000000000011E-10, 8.7616000000000011E-10, 9.0470000000000009E-10
DataValue, -13.8, -8.8024000000000005E-10, 1.5631E-09, 1.5631E-09, 8.8024000000000005E-10
DataValue, -13.6, -8.5327000000000009E-10, 3.0572E-09, 3.0572E-09, 8.5327000000000009E-10
DataValue, -13.4, -8.3033000000000007E-10, 5.7962E-09, 5.7962E-09, 8.3033000000000007E-10
DataValue, -13.200000000000001, -8.0719000000000008E-10, 1.04453E-08, 1.04453E-08, 8.0719000000000008E-10
DataValue, -13, -7.8579E-10, 1.7495399999999997E-08, 1.7495399999999997E-08, 7.8579E-10
DataValue, -12.8, -7.6263000000000008E-10, 2.8853799999999997E-08, 2.8853799999999997E-08, 7.6263000000000008E-10
DataValue, -12.6, -7.414300000000001E-10, 4.4607199999999995E-08, 4.4607199999999995E-08, 7.414300000000001E-10
DataValue, -12.4, -7.2031000000000007E-10, 6.54528E-08, 6.54528E-08, 7.2031000000000007E-10
DataValue, -12.200000000000001, -6.9903E-10, 9.2172999999999988E-08, 9.2172999999999988E-08, 6.9903E-10
DataValue, -12, -6.7834000000000006E-10, 1.2468E-07, 1.2468E-07, 6.7834000000000006E-10
DataValue, -11.8, -6.5794E-10, 1.6276E-07, 1.6276E-07, 6.5794E-10
DataValue, -11.6, -6.3843E-10, 2.0552E-07, 2.0552E-07, 6.3843E-10
DataValue, -11.4, -6.1910000000000006E-10, 2.5184E-07, 2.5184E-07, 6.1910000000000006E-10
DataValue, -11.200000000000001, -5.9990000000000007E-10, 2.9968E-07, 2.9968E-07, 5.9990000000000007E-10
DataValue, -11, -5.8131E-10, 3.4993999999999997E-07, 3.4993999999999997E-07, 5.8131E-10
DataValue, -10.8, -5.63E-10, 3.9992E-07, 3.9992E-07, 5.63E-10
DataValue, -10.6, -5.4513000000000006E-10, 4.5044E-07, 4.5044E-07, 5.4513000000000006E-10
DataValue, -10.4, -5.2808E-10, 4.9694E-07, 4.9694E-07, 5.2808E-10
DataValue, -10.200000000000001, -5.1072000000000007E-10, 5.612E-07, 5.612E-07, 5.1072000000000007E-10
DataValue, -10, -4.9313E-10, 6.0906E-07, 6.0906E-07, 4.9313E-10
DataValue, -9.8, -4.7692E-10, 6.4636E-07, 6.4636E-07, 4.7692E-10
DataValue, -9.6, -4.6068000000000006E-10, 6.9422E-07, 6.9422E-07, 4.6068000000000006E-10
DataValue, -9.4, -4.4497E-10, 7.2566E-07, 7.2566E-07, 4.4497E-10
DataValue, -9.2000000000000011, -4.2972000000000004E-10, 7.6388E-07, 7.6388E-07, 4.2972000000000004E-10
DataValue, -9, -4.1478000000000004E-10, 7.9022E-07, 7.9022E-07, 4.1478000000000004E-10
DataValue, -8.8, -3.9985E-10, 8.2546E-07, 8.2546E-07, 3.9985E-10
DataValue, -8.6, -3.852E-10, 8.534E-07, 8.534E-07, 3.852E-10
DataValue, -8.4, -3.7113000000000004E-10, 8.8192E-07, 8.8192E-07, 3.7113000000000004E-10
DataValue, -8.2, -3.5711E-10, 9.0436E-07, 9.0436E-07, 3.5711E-10
DataValue, -8, -3.4380000000000004E-10, 9.2863999999999993E-07, 9.2863999999999993E-07, 3.4380000000000004E-10
DataValue, -7.8, -3.3034E-10, 9.494E-07, 9.494E-07, 3.3034E-10
DataValue, -7.6000000000000005, -3.1766E-10, 9.7398E-07, 9.7398E-07, 3.1766E-10
DataValue, -7.4, -3.0461000000000005E-10, 9.9682E-07, 9.9682E-07, 3.0461000000000005E-10
DataValue, -7.2, -2.9266E-10, 1.0061E-06, 1.0061E-06, 2.9266E-10
DataValue, -7, -2.8005000000000003E-10, 1.0284E-06, 1.0284E-06, 2.8005000000000003E-10
DataValue, -6.8, -2.6880000000000004E-10, 1.05432E-06, 1.05432E-06, 2.6880000000000004E-10
DataValue, -6.6000000000000005, -2.5698000000000003E-10, 1.05918E-06, 1.05918E-06, 2.5698000000000003E-10
DataValue, -6.4, -2.4541000000000003E-10, 1.08784E-06, 1.08784E-06, 2.4541000000000003E-10
DataValue, -6.2, -2.3478000000000004E-10, 1.08704E-06, 1.08704E-06, 2.3478000000000004E-10
DataValue, -6, -2.236E-10, 1.10906E-06, 1.10906E-06, 2.236E-10
DataValue, -5.8, -2.1348000000000002E-10, 1.1097E-06, 1.1097E-06, 2.1348000000000002E-10
DataValue, -5.6000000000000005, -2.0318000000000002E-10, 1.11152E-06, 1.11152E-06, 2.0318000000000002E-10
DataValue, -5.4, -1.9307E-10, 1.08088E-06, 1.08088E-06, 1.9307E-10
DataValue, -5.2, -1.8342000000000002E-10, 1.1398E-06, 1.1398E-06, 1.8342000000000002E-10
DataValue, -5, -1.7373E-10, 1.148E-06, 1.148E-06, 1.7373E-10
DataValue, -4.8, -1.6489E-10, 1.1508E-06, 1.1508E-06, 1.6489E-10
DataValue, -4.6000000000000005, -1.5567000000000002E-10, 1.1585000000000002E-06, 1.1585000000000002E-06, 1.5567000000000002E-10
